! 8/17/2025 10:47:46 AM
! C:\ANRITSUVNA\TEMP\TEMP.S2P
! CHANNEL.1
! TR.MEASUREMENT
! RAW.DATA
! RF.CORRECTION.OFF
! AVERAGING.OFF
! IF.BANDWIDTH: 5KHZ
! SWEEPTYPE:  FREQ.SWEEP(Linear)
! Reference Plane Port Info
! PORT:              PORT1              PORT2             
! DISTANCE:          0  m               0  m              
! TIME:              0  s               0  s              
! PHASE.OFFSET:      0  deg.            0  deg.           
! LOSS:              0  dB              0  dB             
! REF.LOSS:          0  dB              0  dB             
! REF.FREQ:          0  Hz              0  Hz             
! Power Info
! POWER:             -20  dBm           -20  dBm          
! EFF.POWER:         -20  dBm           -20  dBm          
! SOURCE.ATTEN:      0  dB              0  dB             
! TEST.ATTEN:        0  dB              0  dB             
# GHZ S RI R 50.0
! FREQ.GHZ         S11RE         S11IM         S21RE         S21IM         S12RE         S12IM         S22RE         S22IM         
!; PortSelection: Port_12
   0.010000000     1.0000000    0.0000000    -0.0001515   -0.0000922     1.0000000    0.0000000     1.0000000    0.0000000 
   0.012000000     1.0000000    0.0000000    -0.0000930    0.0000908     1.0000000    0.0000000     1.0000000    0.0000000 
   0.014000000     1.0000000    0.0000000     0.0001287   -0.0000863     1.0000000    0.0000000     1.0000000    0.0000000 
   0.016000000     1.0000000    0.0000000    -0.0000932   -0.0001905     1.0000000    0.0000000     1.0000000    0.0000000 
   0.018000000     1.0000000    0.0000000    -0.0002100   -0.0001613     1.0000000    0.0000000     1.0000000    0.0000000 
   0.020000000     1.0000000    0.0000000    -0.0002238    0.0002078     1.0000000    0.0000000     1.0000000    0.0000000 
   0.022000000     1.0000000    0.0000000     0.0005167    0.0001147     1.0000000    0.0000000     1.0000000    0.0000000 
   0.024000000     1.0000000    0.0000000     0.0001995   -0.0003568     1.0000000    0.0000000     1.0000000    0.0000000 
   0.026000000     1.0000000    0.0000000    -0.0002078   -0.0003464     1.0000000    0.0000000     1.0000000    0.0000000 
   0.028000000     1.0000000    0.0000000    -0.0005444    0.0000547     1.0000000    0.0000000     1.0000000    0.0000000 
   0.030000000     1.0000000    0.0000000    -0.0000436    0.0005998     1.0000000    0.0000000     1.0000000    0.0000000 
   0.032000000     1.0000000    0.0000000     0.0007199    0.0001157     1.0000000    0.0000000     1.0000000    0.0000000 
   0.034000000     1.0000000    0.0000000     0.0002294   -0.0006796     1.0000000    0.0000000     1.0000000    0.0000000 
   0.036000000     1.0000000    0.0000000    -0.0008831   -0.0004197     1.0000000    0.0000000     1.0000000    0.0000000 
   0.038000000     1.0000000    0.0000000    -0.0006726    0.0008940     1.0000000    0.0000000     1.0000000    0.0000000 
   0.040000000     1.0000000    0.0000000     0.0008349    0.0006591     1.0000000    0.0000000     1.0000000    0.0000000 
   0.042000000     1.0000000    0.0000000     0.0010189   -0.0010212     1.0000000    0.0000000     1.0000000    0.0000000 
   0.044000000     1.0000000    0.0000000    -0.0008317   -0.0014155     1.0000000    0.0000000     1.0000000    0.0000000 
   0.046000000     1.0000000    0.0000000    -0.0018869    0.0009994     1.0000000    0.0000000     1.0000000    0.0000000 
   0.048000000     1.0000000    0.0000000     0.0008899    0.0018001     1.0000000    0.0000000     1.0000000    0.0000000 
   0.050000000     1.0000000    0.0000000     0.0020860   -0.0004396     1.0000000    0.0000000     1.0000000    0.0000000 
   0.052000000     1.0000000    0.0000000    -0.0000556   -0.0021522     1.0000000    0.0000000     1.0000000    0.0000000 
   0.054000000     1.0000000    0.0000000    -0.0026094   -0.0001239     1.0000000    0.0000000     1.0000000    0.0000000 
   0.056000000     1.0000000    0.0000000    -0.0006764    0.0024096     1.0000000    0.0000000     1.0000000    0.0000000 
   0.058000000     1.0000000    0.0000000     0.0024517    0.0014076     1.0000000    0.0000000     1.0000000    0.0000000 
   0.060000000     1.0000000    0.0000000     0.0017832   -0.0026779     1.0000000    0.0000000     1.0000000    0.0000000 
   0.062000000     1.0000000    0.0000000    -0.0022648   -0.0020158     1.0000000    0.0000000     1.0000000    0.0000000 
   0.064000000     1.0000000    0.0000000    -0.0028296    0.0021610     1.0000000    0.0000000     1.0000000    0.0000000 
   0.066000000     1.0000000    0.0000000     0.0019462    0.0035301     1.0000000    0.0000000     1.0000000    0.0000000 
   0.068000000     1.0000000    0.0000000     0.0034275   -0.0016263     1.0000000    0.0000000     1.0000000    0.0000000 
   0.070000000     1.0000000    0.0000000    -0.0009065   -0.0040601     1.0000000    0.0000000     1.0000000    0.0000000 
   0.072000000     1.0000000    0.0000000    -0.0052151    0.0000229     1.0000000    0.0000000     1.0000000    0.0000000 
   0.074000000     1.0000000    0.0000000     0.0000218    0.0055104     1.0000000    0.0000000     1.0000000    0.0000000 
   0.076000000     1.0000000    0.0000000     0.0052745    0.0007964     1.0000000    0.0000000     1.0000000    0.0000000 
   0.078000000     1.0000000    0.0000000     0.0023843   -0.0056763     1.0000000    0.0000000     1.0000000    0.0000000 
   0.080000000     1.0000000    0.0000000    -0.0058742   -0.0030105     1.0000000    0.0000000     1.0000000    0.0000000 
   0.082000000     1.0000000    0.0000000    -0.0034504    0.0055608     1.0000000    0.0000000     1.0000000    0.0000000 
   0.084000000     1.0000000    0.0000000     0.0049635    0.0048536     1.0000000    0.0000000     1.0000000    0.0000000 
   0.086000000     1.0000000    0.0000000     0.0060621   -0.0049250     1.0000000    0.0000000     1.0000000    0.0000000 
   0.088000000     1.0000000    0.0000000    -0.0043025   -0.0065021     1.0000000    0.0000000     1.0000000    0.0000000 
   0.090000000     1.0000000    0.0000000    -0.0070129    0.0032250     1.0000000    0.0000000     1.0000000    0.0000000 
   0.092000000     1.0000000    0.0000000     0.0018900    0.0077660     1.0000000    0.0000000     1.0000000    0.0000000 
   0.094000000     1.0000000    0.0000000     0.0083169   -0.0009000     1.0000000    0.0000000     1.0000000    0.0000000 
   0.096000000     1.0000000    0.0000000     0.0000099   -0.0086765     1.0000000    0.0000000     1.0000000    0.0000000 
   0.098000000     1.0000000    0.0000000    -0.0082335   -0.0014826     1.0000000    0.0000000     1.0000000    0.0000000 
   0.100000000     1.0000000    0.0000000    -0.0036219    0.0075422     1.0000000    0.0000000     1.0000000    0.0000000 
   0.102000000     1.0000000    0.0000000     0.0081612    0.0045512     1.0000000    0.0000000     1.0000000    0.0000000 
   0.104000000     1.0000000    0.0000000     0.0053024   -0.0075911     1.0000000    0.0000000     1.0000000    0.0000000 
   0.106000000     1.0000000    0.0000000    -0.0067655   -0.0068995     1.0000000    0.0000000     1.0000000    0.0000000 
   0.108000000     1.0000000    0.0000000    -0.0083936    0.0055600     1.0000000    0.0000000     1.0000000    0.0000000 
   0.110000000     1.0000000    0.0000000     0.0045571    0.0092642     1.0000000    0.0000000     1.0000000    0.0000000 
   0.112000000     1.0000000    0.0000000     0.0094019   -0.0031328     1.0000000    0.0000000     1.0000000    0.0000000 
   0.114000000     1.0000000    0.0000000    -0.0009305   -0.0103286     1.0000000    0.0000000     1.0000000    0.0000000 
   0.116000000     1.0000000    0.0000000    -0.0109879   -0.0007639     1.0000000    0.0000000     1.0000000    0.0000000 
   0.118000000     1.0000000    0.0000000    -0.0024763    0.0109587     1.0000000    0.0000000     1.0000000    0.0000000 
   0.120000000     1.0000000    0.0000000     0.0104078    0.0046653     1.0000000    0.0000000     1.0000000    0.0000000 
   0.122000000     1.0000000    0.0000000     0.0070195   -0.0097160     1.0000000    0.0000000     1.0000000    0.0000000 
   0.124000000     1.0000000    0.0000000    -0.0093578   -0.0089092     1.0000000    0.0000000     1.0000000    0.0000000 
   0.126000000     1.0000000    0.0000000    -0.0105078    0.0083447     1.0000000    0.0000000     1.0000000    0.0000000 
   0.128000000     1.0000000    0.0000000     0.0065408    0.0120238     1.0000000    0.0000000     1.0000000    0.0000000 
   0.130000000     1.0000000    0.0000000     0.0139596   -0.0046518     1.0000000    0.0000000     1.0000000    0.0000000 
   0.132000000     1.0000000    0.0000000    -0.0032687   -0.0155189     1.0000000    0.0000000     1.0000000    0.0000000 
   0.134000000     1.0000000    0.0000000    -0.0162047    0.0016679     1.0000000    0.0000000     1.0000000    0.0000000 
   0.136000000     1.0000000    0.0000000    -0.0007774    0.0163624     1.0000000    0.0000000     1.0000000    0.0000000 
   0.138000000     1.0000000    0.0000000     0.0168984    0.0028546     1.0000000    0.0000000     1.0000000    0.0000000 
   0.140000000     1.0000000    0.0000000     0.0048132   -0.0166539     1.0000000    0.0000000     1.0000000    0.0000000 
   0.142000000     1.0000000    0.0000000    -0.0157939   -0.0065730     1.0000000    0.0000000     1.0000000    0.0000000 
   0.144000000     1.0000000    0.0000000    -0.0092520    0.0148662     1.0000000    0.0000000     1.0000000    0.0000000 
   0.146000000     1.0000000    0.0000000     0.0135669    0.0109639     1.0000000    0.0000000     1.0000000    0.0000000 
   0.148000000     1.0000000    0.0000000     0.0124053   -0.0115989     1.0000000    0.0000000     1.0000000    0.0000000 
   0.150000000     1.0000000    0.0000000    -0.0092874   -0.0136310     1.0000000    0.0000000     1.0000000    0.0000000 
   0.152000000     1.0000000    0.0000000    -0.0149094    0.0070512     1.0000000    0.0000000     1.0000000    0.0000000 
   0.154000000     1.0000000    0.0000000     0.0044240    0.0154219     1.0000000    0.0000000     1.0000000    0.0000000 
   0.156000000     1.0000000    0.0000000     0.0154906   -0.0017858     1.0000000    0.0000000     1.0000000    0.0000000 
   0.158000000     1.0000000    0.0000000     0.0012462   -0.0154040     1.0000000    0.0000000     1.0000000    0.0000000 
   0.160000000     1.0000000    0.0000000    -0.0147040   -0.0043212     1.0000000    0.0000000     1.0000000    0.0000000 
   0.162000000     1.0000000    0.0000000    -0.0071363    0.0137507     1.0000000    0.0000000     1.0000000    0.0000000 
   0.164000000     1.0000000    0.0000000     0.0122100    0.0096471     1.0000000    0.0000000     1.0000000    0.0000000 
   0.166000000     1.0000000    0.0000000     0.0120935   -0.0100059     1.0000000    0.0000000     1.0000000    0.0000000 
   0.168000000     1.0000000    0.0000000    -0.0075200   -0.0143639     1.0000000    0.0000000     1.0000000    0.0000000 
   0.170000000     1.0000000    0.0000000    -0.0164782    0.0053015     1.0000000    0.0000000     1.0000000    0.0000000 
   0.172000000     1.0000000    0.0000000     0.0024748    0.0175726     1.0000000    0.0000000     1.0000000    0.0000000 
   0.174000000     1.0000000    0.0000000     0.0178642    0.0011590     1.0000000    0.0000000     1.0000000    0.0000000 
   0.176000000     1.0000000    0.0000000     0.0040604   -0.0190635     1.0000000    0.0000000     1.0000000    0.0000000 
   0.178000000     1.0000000    0.0000000    -0.0190953   -0.0069599     1.0000000    0.0000000     1.0000000    0.0000000 
   0.180000000     1.0000000    0.0000000    -0.0102919    0.0179229     1.0000000    0.0000000     1.0000000    0.0000000 
   0.182000000     1.0000000    0.0000000     0.0167093    0.0139793     1.0000000    0.0000000     1.0000000    0.0000000 
   0.184000000     1.0000000    0.0000000     0.0164008   -0.0152064     1.0000000    0.0000000     1.0000000    0.0000000 
   0.186000000     1.0000000    0.0000000    -0.0131676   -0.0188038     1.0000000    0.0000000     1.0000000    0.0000000 
   0.188000000     1.0000000    0.0000000    -0.0209000    0.0107287     1.0000000    0.0000000     1.0000000    0.0000000 
   0.190000000     1.0000000    0.0000000     0.0075400    0.0227460     1.0000000    0.0000000     1.0000000    0.0000000 
   0.192000000     1.0000000    0.0000000     0.0239167   -0.0047466     1.0000000    0.0000000     1.0000000    0.0000000 
   0.194000000     1.0000000    0.0000000    -0.0012664   -0.0244015     1.0000000    0.0000000     1.0000000    0.0000000 
   0.196000000     1.0000000    0.0000000    -0.0243342   -0.0021044     1.0000000    0.0000000     1.0000000    0.0000000 
   0.198000000     1.0000000    0.0000000    -0.0056037    0.0235498     1.0000000    0.0000000     1.0000000    0.0000000 
   0.200000000     1.0000000    0.0000000     0.0222852    0.0090220     1.0000000    0.0000000     1.0000000    0.0000000 
   0.202000000     1.0000000    0.0000000     0.0116957   -0.0207516     1.0000000    0.0000000     1.0000000    0.0000000 
   0.204000000     1.0000000    0.0000000    -0.0183018   -0.0147586     1.0000000    0.0000000     1.0000000    0.0000000 
   0.206000000     1.0000000    0.0000000    -0.0172439    0.0151132     1.0000000    0.0000000     1.0000000    0.0000000 
   0.208000000     1.0000000    0.0000000     0.0120299    0.0191197     1.0000000    0.0000000     1.0000000    0.0000000 
   0.210000000     1.0000000    0.0000000     0.0210377   -0.0085433     1.0000000    0.0000000     1.0000000    0.0000000 
   0.212000000     1.0000000    0.0000000    -0.0044785   -0.0216759     1.0000000    0.0000000     1.0000000    0.0000000 
   0.214000000     1.0000000    0.0000000    -0.0220711    0.0001643     1.0000000    0.0000000     1.0000000    0.0000000 
   0.216000000     1.0000000    0.0000000    -0.0035972    0.0217869     1.0000000    0.0000000     1.0000000    0.0000000 
   0.218000000     1.0000000    0.0000000     0.0212331    0.0076384     1.0000000    0.0000000     1.0000000    0.0000000 
   0.220000000     1.0000000    0.0000000     0.0114217   -0.0192013     1.0000000    0.0000000     1.0000000    0.0000000 
   0.222000000     1.0000000    0.0000000    -0.0173240   -0.0152620     1.0000000    0.0000000     1.0000000    0.0000000 
   0.224000000     1.0000000    0.0000000    -0.0189518    0.0147495     1.0000000    0.0000000     1.0000000    0.0000000 
   0.226000000     1.0000000    0.0000000     0.0116913    0.0210421     1.0000000    0.0000000     1.0000000    0.0000000 
   0.228000000     1.0000000    0.0000000     0.0229636   -0.0075705     1.0000000    0.0000000     1.0000000    0.0000000 
   0.230000000     1.0000000    0.0000000    -0.0035643   -0.0252484     1.0000000    0.0000000     1.0000000    0.0000000 
   0.232000000     1.0000000    0.0000000    -0.0262741    0.0004525     1.0000000    0.0000000     1.0000000    0.0000000 
   0.234000000     1.0000000    0.0000000    -0.0039253    0.0259261     1.0000000    0.0000000     1.0000000    0.0000000 
   0.236000000     1.0000000    0.0000000     0.0255955    0.0085818     1.0000000    0.0000000     1.0000000    0.0000000 
   0.238000000     1.0000000    0.0000000     0.0120954   -0.0248120     1.0000000    0.0000000     1.0000000    0.0000000 
   0.240000000     1.0000000    0.0000000    -0.0230679   -0.0153856     1.0000000    0.0000000     1.0000000    0.0000000 
   0.242000000     1.0000000    0.0000000    -0.0187891    0.0204257     1.0000000    0.0000000     1.0000000    0.0000000 
   0.244000000     1.0000000    0.0000000     0.0173023    0.0216070     1.0000000    0.0000000     1.0000000    0.0000000 
   0.246000000     1.0000000    0.0000000     0.0235563   -0.0136329     1.0000000    0.0000000     1.0000000    0.0000000 
   0.248000000     1.0000000    0.0000000    -0.0096430   -0.0256704     1.0000000    0.0000000     1.0000000    0.0000000 
   0.250000000     1.0000000    0.0000000    -0.0264964    0.0057226     1.0000000    0.0000000     1.0000000    0.0000000 
   0.252000000     1.0000000    0.0000000     0.0011871    0.0268572     1.0000000    0.0000000     1.0000000    0.0000000 
   0.254000000     1.0000000    0.0000000     0.0266412    0.0033989     1.0000000    0.0000000     1.0000000    0.0000000 
   0.256000000     1.0000000    0.0000000     0.0076068   -0.0256716     1.0000000    0.0000000     1.0000000    0.0000000 
   0.258000000     1.0000000    0.0000000    -0.0231209   -0.0116068     1.0000000    0.0000000     1.0000000    0.0000000 
   0.260000000     1.0000000    0.0000000    -0.0152584    0.0210202     1.0000000    0.0000000     1.0000000    0.0000000 
   0.262000000     1.0000000    0.0000000     0.0187390    0.0182865     1.0000000    0.0000000     1.0000000    0.0000000 
   0.264000000     1.0000000    0.0000000     0.0198644   -0.0147907     1.0000000    0.0000000     1.0000000    0.0000000 
   0.266000000     1.0000000    0.0000000    -0.0094645   -0.0224912     1.0000000    0.0000000     1.0000000    0.0000000 
   0.268000000     1.0000000    0.0000000    -0.0248555    0.0054411     1.0000000    0.0000000     1.0000000    0.0000000 
   0.270000000     1.0000000    0.0000000     0.0021900    0.0254010     1.0000000    0.0000000     1.0000000    0.0000000 
   0.272000000     1.0000000    0.0000000     0.0239082    0.0030704     1.0000000    0.0000000     1.0000000    0.0000000 
   0.274000000     1.0000000    0.0000000     0.0087732   -0.0235803     1.0000000    0.0000000     1.0000000    0.0000000 
   0.276000000     1.0000000    0.0000000    -0.0234759   -0.0128149     1.0000000    0.0000000     1.0000000    0.0000000 
   0.278000000     1.0000000    0.0000000    -0.0157670    0.0202363     1.0000000    0.0000000     1.0000000    0.0000000 
   0.280000000     1.0000000    0.0000000     0.0166438    0.0201566     1.0000000    0.0000000     1.0000000    0.0000000 
   0.282000000     1.0000000    0.0000000     0.0244094   -0.0128680     1.0000000    0.0000000     1.0000000    0.0000000 
   0.284000000     1.0000000    0.0000000    -0.0101773   -0.0276643     1.0000000    0.0000000     1.0000000    0.0000000 
   0.286000000     1.0000000    0.0000000    -0.0285733    0.0076225     1.0000000    0.0000000     1.0000000    0.0000000 
   0.288000000     1.0000000    0.0000000     0.0029196    0.0283270     1.0000000    0.0000000     1.0000000    0.0000000 
   0.290000000     1.0000000    0.0000000     0.0283180    0.0017127     1.0000000    0.0000000     1.0000000    0.0000000 
   0.292000000     1.0000000    0.0000000     0.0069529   -0.0277262     1.0000000    0.0000000     1.0000000    0.0000000 
   0.294000000     1.0000000    0.0000000    -0.0264450   -0.0114158     1.0000000    0.0000000     1.0000000    0.0000000 
   0.296000000     1.0000000    0.0000000    -0.0153866    0.0243586     1.0000000    0.0000000     1.0000000    0.0000000 
   0.298000000     1.0000000    0.0000000     0.0209679    0.0183629     1.0000000    0.0000000     1.0000000    0.0000000 
   0.300000000     1.0000000    0.0000000     0.0221179   -0.0167038     1.0000000    0.0000000     1.0000000    0.0000000 
   0.302000000     1.0000000    0.0000000    -0.0133613   -0.0254050     1.0000000    0.0000000     1.0000000    0.0000000 
   0.304000000     1.0000000    0.0000000    -0.0267236    0.0100170     1.0000000    0.0000000     1.0000000    0.0000000 
   0.306000000     1.0000000    0.0000000     0.0043996    0.0276138     1.0000000    0.0000000     1.0000000    0.0000000 
   0.308000000     1.0000000    0.0000000     0.0284923    0.0005999     1.0000000    0.0000000     1.0000000    0.0000000 
   0.310000000     1.0000000    0.0000000     0.0045834   -0.0280442     1.0000000    0.0000000     1.0000000    0.0000000 
   0.312000000     1.0000000    0.0000000    -0.0252984   -0.0088611     1.0000000    0.0000000     1.0000000    0.0000000 
