! 8/17/2025 9:37:39 AM
! C:\ANRITSUVNA\TEMP\TEMP.S2P
! CHANNEL.1
! TR.MEASUREMENT
! RAW.DATA
! RF.CORRECTION.OFF
! AVERAGING.OFF
! IF.BANDWIDTH: 5KHZ
! SWEEPTYPE:  FREQ.SWEEP(Linear)
! Reference Plane Port Info
! PORT:              PORT1              PORT2             
! DISTANCE:          0  m               0  m              
! TIME:              0  s               0  s              
! PHASE.OFFSET:      0  deg.            0  deg.           
! LOSS:              0  dB              0  dB             
! REF.LOSS:          0  dB              0  dB             
! REF.FREQ:          0  Hz              0  Hz             
! Power Info
! POWER:             -20  dBm           -20  dBm          
! EFF.POWER:         -20  dBm           -20  dBm          
! SOURCE.ATTEN:      0  dB              0  dB             
! TEST.ATTEN:        0  dB              0  dB             
# GHZ S RI R 50.0
! FREQ.GHZ         S11RE         S11IM         S21RE         S21IM         S12RE         S12IM         S22RE         S22IM         
!; PortSelection: Port_12
   0.010000000     1.0000000    0.0000000    -0.0001629   -0.0000957     1.0000000    0.0000000     1.0000000    0.0000000 
   0.012000000     1.0000000    0.0000000     0.0000423    0.0001578     1.0000000    0.0000000     1.0000000    0.0000000 
   0.014000000     1.0000000    0.0000000     0.0001891    0.0001420     1.0000000    0.0000000     1.0000000    0.0000000 
   0.016000000     1.0000000    0.0000000     0.0001814   -0.0001595     1.0000000    0.0000000     1.0000000    0.0000000 
   0.018000000     1.0000000    0.0000000    -0.0001708    0.0000440     1.0000000    0.0000000     1.0000000    0.0000000 
   0.020000000     1.0000000    0.0000000    -0.0001998    0.0001797     1.0000000    0.0000000     1.0000000    0.0000000 
   0.022000000     1.0000000    0.0000000     0.0004288    0.0002094     1.0000000    0.0000000     1.0000000    0.0000000 
   0.024000000     1.0000000    0.0000000     0.0000757   -0.0002354     1.0000000    0.0000000     1.0000000    0.0000000 
   0.026000000     1.0000000    0.0000000    -0.0001155   -0.0004258     1.0000000    0.0000000     1.0000000    0.0000000 
   0.028000000     1.0000000    0.0000000    -0.0003760    0.0000423     1.0000000    0.0000000     1.0000000    0.0000000 
   0.030000000     1.0000000    0.0000000     0.0001628    0.0004541     1.0000000    0.0000000     1.0000000    0.0000000 
   0.032000000     1.0000000    0.0000000     0.0007275    0.0000856     1.0000000    0.0000000     1.0000000    0.0000000 
   0.034000000     1.0000000    0.0000000     0.0001826   -0.0007268     1.0000000    0.0000000     1.0000000    0.0000000 
   0.036000000     1.0000000    0.0000000    -0.0008167   -0.0004681     1.0000000    0.0000000     1.0000000    0.0000000 
   0.038000000     1.0000000    0.0000000    -0.0006106    0.0008376     1.0000000    0.0000000     1.0000000    0.0000000 
   0.040000000     1.0000000    0.0000000     0.0009211    0.0005851     1.0000000    0.0000000     1.0000000    0.0000000 
   0.042000000     1.0000000    0.0000000     0.0010352   -0.0009604     1.0000000    0.0000000     1.0000000    0.0000000 
   0.044000000     1.0000000    0.0000000    -0.0007794   -0.0012668     1.0000000    0.0000000     1.0000000    0.0000000 
   0.046000000     1.0000000    0.0000000    -0.0017048    0.0008581     1.0000000    0.0000000     1.0000000    0.0000000 
   0.048000000     1.0000000    0.0000000     0.0007505    0.0018513     1.0000000    0.0000000     1.0000000    0.0000000 
   0.050000000     1.0000000    0.0000000     0.0021483   -0.0004109     1.0000000    0.0000000     1.0000000    0.0000000 
   0.052000000     1.0000000    0.0000000     0.0002280   -0.0024898     1.0000000    0.0000000     1.0000000    0.0000000 
   0.054000000     1.0000000    0.0000000    -0.0024923   -0.0001335     1.0000000    0.0000000     1.0000000    0.0000000 
   0.056000000     1.0000000    0.0000000    -0.0005238    0.0024713     1.0000000    0.0000000     1.0000000    0.0000000 
   0.058000000     1.0000000    0.0000000     0.0026830    0.0016078     1.0000000    0.0000000     1.0000000    0.0000000 
   0.060000000     1.0000000    0.0000000     0.0018128   -0.0024218     1.0000000    0.0000000     1.0000000    0.0000000 
   0.062000000     1.0000000    0.0000000    -0.0025943   -0.0022358     1.0000000    0.0000000     1.0000000    0.0000000 
   0.064000000     1.0000000    0.0000000    -0.0028150    0.0019313     1.0000000    0.0000000     1.0000000    0.0000000 
   0.066000000     1.0000000    0.0000000     0.0017184    0.0036671     1.0000000    0.0000000     1.0000000    0.0000000 
   0.068000000     1.0000000    0.0000000     0.0038568   -0.0014589     1.0000000    0.0000000     1.0000000    0.0000000 
   0.070000000     1.0000000    0.0000000    -0.0004856   -0.0042439     1.0000000    0.0000000     1.0000000    0.0000000 
   0.072000000     1.0000000    0.0000000    -0.0049319   -0.0000701     1.0000000    0.0000000     1.0000000    0.0000000 
   0.074000000     1.0000000    0.0000000    -0.0002801    0.0055556     1.0000000    0.0000000     1.0000000    0.0000000 
   0.076000000     1.0000000    0.0000000     0.0052447    0.0010449     1.0000000    0.0000000     1.0000000    0.0000000 
   0.078000000     1.0000000    0.0000000     0.0023510   -0.0052900     1.0000000    0.0000000     1.0000000    0.0000000 
   0.080000000     1.0000000    0.0000000    -0.0056941   -0.0031487     1.0000000    0.0000000     1.0000000    0.0000000 
   0.082000000     1.0000000    0.0000000    -0.0037389    0.0054371     1.0000000    0.0000000     1.0000000    0.0000000 
   0.084000000     1.0000000    0.0000000     0.0046411    0.0051296     1.0000000    0.0000000     1.0000000    0.0000000 
   0.086000000     1.0000000    0.0000000     0.0060753   -0.0043615     1.0000000    0.0000000     1.0000000    0.0000000 
   0.088000000     1.0000000    0.0000000    -0.0040023   -0.0068067     1.0000000    0.0000000     1.0000000    0.0000000 
   0.090000000     1.0000000    0.0000000    -0.0068453    0.0030970     1.0000000    0.0000000     1.0000000    0.0000000 
   0.092000000     1.0000000    0.0000000     0.0017380    0.0075862     1.0000000    0.0000000     1.0000000    0.0000000 
   0.094000000     1.0000000    0.0000000     0.0085782   -0.0003434     1.0000000    0.0000000     1.0000000    0.0000000 
   0.096000000     1.0000000    0.0000000     0.0002462   -0.0085884     1.0000000    0.0000000     1.0000000    0.0000000 
   0.098000000     1.0000000    0.0000000    -0.0083939   -0.0019008     1.0000000    0.0000000     1.0000000    0.0000000 
   0.100000000     1.0000000    0.0000000    -0.0037942    0.0089029     1.0000000    0.0000000     1.0000000    0.0000000 
   0.102000000     1.0000000    0.0000000     0.0079283    0.0048431     1.0000000    0.0000000     1.0000000    0.0000000 
   0.104000000     1.0000000    0.0000000     0.0060812   -0.0074261     1.0000000    0.0000000     1.0000000    0.0000000 
   0.106000000     1.0000000    0.0000000    -0.0064230   -0.0072129     1.0000000    0.0000000     1.0000000    0.0000000 
   0.108000000     1.0000000    0.0000000    -0.0083552    0.0051861     1.0000000    0.0000000     1.0000000    0.0000000 
   0.110000000     1.0000000    0.0000000     0.0042731    0.0094836     1.0000000    0.0000000     1.0000000    0.0000000 
   0.112000000     1.0000000    0.0000000     0.0100240   -0.0027332     1.0000000    0.0000000     1.0000000    0.0000000 
   0.114000000     1.0000000    0.0000000    -0.0007803   -0.0103967     1.0000000    0.0000000     1.0000000    0.0000000 
   0.116000000     1.0000000    0.0000000    -0.0107644   -0.0013975     1.0000000    0.0000000     1.0000000    0.0000000 
   0.118000000     1.0000000    0.0000000    -0.0030072    0.0106836     1.0000000    0.0000000     1.0000000    0.0000000 
   0.120000000     1.0000000    0.0000000     0.0099691    0.0050363     1.0000000    0.0000000     1.0000000    0.0000000 
   0.122000000     1.0000000    0.0000000     0.0074487   -0.0095383     1.0000000    0.0000000     1.0000000    0.0000000 
   0.124000000     1.0000000    0.0000000    -0.0088995   -0.0095916     1.0000000    0.0000000     1.0000000    0.0000000 
   0.126000000     1.0000000    0.0000000    -0.0108828    0.0078680     1.0000000    0.0000000     1.0000000    0.0000000 
   0.128000000     1.0000000    0.0000000     0.0060586    0.0124063     1.0000000    0.0000000     1.0000000    0.0000000 
   0.130000000     1.0000000    0.0000000     0.0140559   -0.0040724     1.0000000    0.0000000     1.0000000    0.0000000 
   0.132000000     1.0000000    0.0000000    -0.0025689   -0.0157567     1.0000000    0.0000000     1.0000000    0.0000000 
   0.134000000     1.0000000    0.0000000    -0.0162855    0.0011574     1.0000000    0.0000000     1.0000000    0.0000000 
   0.136000000     1.0000000    0.0000000    -0.0013083    0.0163276     1.0000000    0.0000000     1.0000000    0.0000000 
   0.138000000     1.0000000    0.0000000     0.0168918    0.0037508     1.0000000    0.0000000     1.0000000    0.0000000 
   0.140000000     1.0000000    0.0000000     0.0056172   -0.0165695     1.0000000    0.0000000     1.0000000    0.0000000 
   0.142000000     1.0000000    0.0000000    -0.0157722   -0.0076786     1.0000000    0.0000000     1.0000000    0.0000000 
   0.144000000     1.0000000    0.0000000    -0.0100832    0.0145569     1.0000000    0.0000000     1.0000000    0.0000000 
   0.146000000     1.0000000    0.0000000     0.0129266    0.0117931     1.0000000    0.0000000     1.0000000    0.0000000 
   0.148000000     1.0000000    0.0000000     0.0129433   -0.0111033     1.0000000    0.0000000     1.0000000    0.0000000 
   0.150000000     1.0000000    0.0000000    -0.0084203   -0.0143477     1.0000000    0.0000000     1.0000000    0.0000000 
   0.152000000     1.0000000    0.0000000    -0.0152405    0.0060856     1.0000000    0.0000000     1.0000000    0.0000000 
   0.154000000     1.0000000    0.0000000     0.0033256    0.0156875     1.0000000    0.0000000     1.0000000    0.0000000 
   0.156000000     1.0000000    0.0000000     0.0157122   -0.0005488     1.0000000    0.0000000     1.0000000    0.0000000 
   0.158000000     1.0000000    0.0000000     0.0024440   -0.0151669     1.0000000    0.0000000     1.0000000    0.0000000 
   0.160000000     1.0000000    0.0000000    -0.0146567   -0.0051016     1.0000000    0.0000000     1.0000000    0.0000000 
   0.162000000     1.0000000    0.0000000    -0.0077260    0.0133700     1.0000000    0.0000000     1.0000000    0.0000000 
   0.164000000     1.0000000    0.0000000     0.0116442    0.0102729     1.0000000    0.0000000     1.0000000    0.0000000 
   0.166000000     1.0000000    0.0000000     0.0130930   -0.0094475     1.0000000    0.0000000     1.0000000    0.0000000 
   0.168000000     1.0000000    0.0000000    -0.0065481   -0.0150907     1.0000000    0.0000000     1.0000000    0.0000000 
   0.170000000     1.0000000    0.0000000    -0.0167442    0.0038538     1.0000000    0.0000000     1.0000000    0.0000000 
   0.172000000     1.0000000    0.0000000     0.0014281    0.0176906     1.0000000    0.0000000     1.0000000    0.0000000 
   0.174000000     1.0000000    0.0000000     0.0179375    0.0023745     1.0000000    0.0000000     1.0000000    0.0000000 
   0.176000000     1.0000000    0.0000000     0.0058701   -0.0188006     1.0000000    0.0000000     1.0000000    0.0000000 
   0.178000000     1.0000000    0.0000000    -0.0180573   -0.0084729     1.0000000    0.0000000     1.0000000    0.0000000 
   0.180000000     1.0000000    0.0000000    -0.0118900    0.0173483     1.0000000    0.0000000     1.0000000    0.0000000 
   0.182000000     1.0000000    0.0000000     0.0154605    0.0148704     1.0000000    0.0000000     1.0000000    0.0000000 
   0.184000000     1.0000000    0.0000000     0.0176669   -0.0139597     1.0000000    0.0000000     1.0000000    0.0000000 
   0.186000000     1.0000000    0.0000000    -0.0119664   -0.0198678     1.0000000    0.0000000     1.0000000    0.0000000 
   0.188000000     1.0000000    0.0000000    -0.0218444    0.0090742     1.0000000    0.0000000     1.0000000    0.0000000 
   0.190000000     1.0000000    0.0000000     0.0061593    0.0238099     1.0000000    0.0000000     1.0000000    0.0000000 
   0.192000000     1.0000000    0.0000000     0.0246158   -0.0028698     1.0000000    0.0000000     1.0000000    0.0000000 
   0.194000000     1.0000000    0.0000000     0.0003951   -0.0248028     1.0000000    0.0000000     1.0000000    0.0000000 
   0.196000000     1.0000000    0.0000000    -0.0245238   -0.0037355     1.0000000    0.0000000     1.0000000    0.0000000 
   0.198000000     1.0000000    0.0000000    -0.0073925    0.0232090     1.0000000    0.0000000     1.0000000    0.0000000 
   0.200000000     1.0000000    0.0000000     0.0216503    0.0106067     1.0000000    0.0000000     1.0000000    0.0000000 
   0.202000000     1.0000000    0.0000000     0.0135688   -0.0197513     1.0000000    0.0000000     1.0000000    0.0000000 
   0.204000000     1.0000000    0.0000000    -0.0173740   -0.0162675     1.0000000    0.0000000     1.0000000    0.0000000 
   0.206000000     1.0000000    0.0000000    -0.0182801    0.0140700     1.0000000    0.0000000     1.0000000    0.0000000 
   0.208000000     1.0000000    0.0000000     0.0101536    0.0206183     1.0000000    0.0000000     1.0000000    0.0000000 
   0.210000000     1.0000000    0.0000000     0.0216584   -0.0064690     1.0000000    0.0000000     1.0000000    0.0000000 
   0.212000000     1.0000000    0.0000000    -0.0029154   -0.0221796     1.0000000    0.0000000     1.0000000    0.0000000 
   0.214000000     1.0000000    0.0000000    -0.0220794   -0.0016856     1.0000000    0.0000000     1.0000000    0.0000000 
   0.216000000     1.0000000    0.0000000    -0.0058846    0.0218825     1.0000000    0.0000000     1.0000000    0.0000000 
   0.218000000     1.0000000    0.0000000     0.0206848    0.0095754     1.0000000    0.0000000     1.0000000    0.0000000 
   0.220000000     1.0000000    0.0000000     0.0132081   -0.0184643     1.0000000    0.0000000     1.0000000    0.0000000 
   0.222000000     1.0000000    0.0000000    -0.0160237   -0.0168703     1.0000000    0.0000000     1.0000000    0.0000000 
   0.224000000     1.0000000    0.0000000    -0.0201784    0.0133295     1.0000000    0.0000000     1.0000000    0.0000000 
   0.226000000     1.0000000    0.0000000     0.0099100    0.0221454     1.0000000    0.0000000     1.0000000    0.0000000 
   0.228000000     1.0000000    0.0000000     0.0238032   -0.0059612     1.0000000    0.0000000     1.0000000    0.0000000 
   0.230000000     1.0000000    0.0000000    -0.0013472   -0.0258432     1.0000000    0.0000000     1.0000000    0.0000000 
   0.232000000     1.0000000    0.0000000    -0.0267260   -0.0021417     1.0000000    0.0000000     1.0000000    0.0000000 
   0.234000000     1.0000000    0.0000000    -0.0060258    0.0256069     1.0000000    0.0000000     1.0000000    0.0000000 
   0.236000000     1.0000000    0.0000000     0.0252348    0.0109818     1.0000000    0.0000000     1.0000000    0.0000000 
   0.238000000     1.0000000    0.0000000     0.0144736   -0.0241252     1.0000000    0.0000000     1.0000000    0.0000000 
   0.240000000     1.0000000    0.0000000    -0.0215691   -0.0176414     1.0000000    0.0000000     1.0000000    0.0000000 
   0.242000000     1.0000000    0.0000000    -0.0210741    0.0185508     1.0000000    0.0000000     1.0000000    0.0000000 
   0.244000000     1.0000000    0.0000000     0.0155135    0.0229476     1.0000000    0.0000000     1.0000000    0.0000000 
   0.246000000     1.0000000    0.0000000     0.0248956   -0.0117290     1.0000000    0.0000000     1.0000000    0.0000000 
   0.248000000     1.0000000    0.0000000    -0.0071653   -0.0265416     1.0000000    0.0000000     1.0000000    0.0000000 
   0.250000000     1.0000000    0.0000000    -0.0271661    0.0029127     1.0000000    0.0000000     1.0000000    0.0000000 
   0.252000000     1.0000000    0.0000000    -0.0010727    0.0272136     1.0000000    0.0000000     1.0000000    0.0000000 
   0.254000000     1.0000000    0.0000000     0.0267045    0.0058069     1.0000000    0.0000000     1.0000000    0.0000000 
   0.256000000     1.0000000    0.0000000     0.0099355   -0.0249842     1.0000000    0.0000000     1.0000000    0.0000000 
   0.258000000     1.0000000    0.0000000    -0.0225028   -0.0140206     1.0000000    0.0000000     1.0000000    0.0000000 
   0.260000000     1.0000000    0.0000000    -0.0174915    0.0197192     1.0000000    0.0000000     1.0000000    0.0000000 
   0.262000000     1.0000000    0.0000000     0.0170886    0.0201801     1.0000000    0.0000000     1.0000000    0.0000000 
   0.264000000     1.0000000    0.0000000     0.0218366   -0.0127421     1.0000000    0.0000000     1.0000000    0.0000000 
   0.266000000     1.0000000    0.0000000    -0.0077730   -0.0231294     1.0000000    0.0000000     1.0000000    0.0000000 
   0.268000000     1.0000000    0.0000000    -0.0255636    0.0029272     1.0000000    0.0000000     1.0000000    0.0000000 
   0.270000000     1.0000000    0.0000000    -0.0003608    0.0257704     1.0000000    0.0000000     1.0000000    0.0000000 
   0.272000000     1.0000000    0.0000000     0.0236358    0.0057001     1.0000000    0.0000000     1.0000000    0.0000000 
   0.274000000     1.0000000    0.0000000     0.0115509   -0.0225329     1.0000000    0.0000000     1.0000000    0.0000000 
   0.276000000     1.0000000    0.0000000    -0.0215680   -0.0152228     1.0000000    0.0000000     1.0000000    0.0000000 
   0.278000000     1.0000000    0.0000000    -0.0183069    0.0188253     1.0000000    0.0000000     1.0000000    0.0000000 
   0.280000000     1.0000000    0.0000000     0.0146619    0.0213874     1.0000000    0.0000000     1.0000000    0.0000000 
   0.282000000     1.0000000    0.0000000     0.0252384   -0.0107925     1.0000000    0.0000000     1.0000000    0.0000000 
   0.284000000     1.0000000    0.0000000    -0.0071924   -0.0284823     1.0000000    0.0000000     1.0000000    0.0000000 
   0.286000000     1.0000000    0.0000000    -0.0298383    0.0043997     1.0000000    0.0000000     1.0000000    0.0000000 
   0.288000000     1.0000000    0.0000000    -0.0003004    0.0295073     1.0000000    0.0000000     1.0000000    0.0000000 
   0.290000000     1.0000000    0.0000000     0.0284856    0.0052431     1.0000000    0.0000000     1.0000000    0.0000000 
   0.292000000     1.0000000    0.0000000     0.0103371   -0.0273912     1.0000000    0.0000000     1.0000000    0.0000000 
   0.294000000     1.0000000    0.0000000    -0.0252086   -0.0143977     1.0000000    0.0000000     1.0000000    0.0000000 
   0.296000000     1.0000000    0.0000000    -0.0179037    0.0230474     1.0000000    0.0000000     1.0000000    0.0000000 
   0.298000000     1.0000000    0.0000000     0.0193835    0.0210424     1.0000000    0.0000000     1.0000000    0.0000000 
   0.300000000     1.0000000    0.0000000     0.0239067   -0.0148778     1.0000000    0.0000000     1.0000000    0.0000000 
   0.302000000     1.0000000    0.0000000    -0.0103690   -0.0268713     1.0000000    0.0000000     1.0000000    0.0000000 
   0.304000000     1.0000000    0.0000000    -0.0282611    0.0067785     1.0000000    0.0000000     1.0000000    0.0000000 
   0.306000000     1.0000000    0.0000000     0.0012303    0.0282689     1.0000000    0.0000000     1.0000000    0.0000000 
   0.308000000     1.0000000    0.0000000     0.0283682    0.0036536     1.0000000    0.0000000     1.0000000    0.0000000 
   0.310000000     1.0000000    0.0000000     0.0077355   -0.0275740     1.0000000    0.0000000     1.0000000    0.0000000 
   0.312000000     1.0000000    0.0000000    -0.0250108   -0.0116426     1.0000000    0.0000000     1.0000000    0.0000000 
