! 8/15/2025 3:46:37 PM
! C:\ANRITSUVNA\TEMP\TEMP.S2P
! CHANNEL.1
! TR.MEASUREMENT
! RAW.DATA
! RF.CORRECTION.OFF
! AVERAGING.OFF
! IF.BANDWIDTH: 5KHZ
! SWEEPTYPE:  FREQ.SWEEP(Linear)
! Reference Plane Port Info
! PORT:              PORT1              PORT2             
! DISTANCE:          0  m               0  m              
! TIME:              0  s               0  s              
! PHASE.OFFSET:      0  deg.            0  deg.           
! LOSS:              0  dB              0  dB             
! REF.LOSS:          0  dB              0  dB             
! REF.FREQ:          0  Hz              0  Hz             
! Power Info
! POWER:             -20  dBm           -20  dBm          
! EFF.POWER:         -20  dBm           -20  dBm          
! SOURCE.ATTEN:      0  dB              0  dB             
! TEST.ATTEN:        0  dB              0  dB             
# GHZ S RI R 50.0
! FREQ.GHZ         S11RE         S11IM         S21RE         S21IM         S12RE         S12IM         S22RE         S22IM         
!; PortSelection: Port_12
   0.010000000     1.0000000    0.0000000    -0.0002915   -0.0001757     1.0000000    0.0000000     1.0000000    0.0000000 
   0.012000000     1.0000000    0.0000000    -0.0002629   -0.0002987     1.0000000    0.0000000     1.0000000    0.0000000 
   0.014000000     1.0000000    0.0000000     0.0002749    0.0012251     1.0000000    0.0000000     1.0000000    0.0000000 
   0.016000000     1.0000000    0.0000000    -0.0000660   -0.0000974     1.0000000    0.0000000     1.0000000    0.0000000 
   0.018000000     1.0000000    0.0000000    -0.0001352   -0.0000486     1.0000000    0.0000000     1.0000000    0.0000000 
   0.020000000     1.0000000    0.0000000    -0.0002053    0.0000074     1.0000000    0.0000000     1.0000000    0.0000000 
   0.022000000     1.0000000    0.0000000     0.0002064    0.0000004     1.0000000    0.0000000     1.0000000    0.0000000 
   0.024000000     1.0000000    0.0000000     0.0000068    0.0003916     1.0000000    0.0000000     1.0000000    0.0000000 
   0.026000000     1.0000000    0.0000000     0.0003965   -0.0001290     1.0000000    0.0000000     1.0000000    0.0000000 
   0.028000000     1.0000000    0.0000000     0.0001390    0.0000113     1.0000000    0.0000000     1.0000000    0.0000000 
   0.030000000     1.0000000    0.0000000    -0.0000781    0.0002637     1.0000000    0.0000000     1.0000000    0.0000000 
   0.032000000     1.0000000    0.0000000     0.0003225   -0.0000883     1.0000000    0.0000000     1.0000000    0.0000000 
   0.034000000     1.0000000    0.0000000     0.0000220   -0.0000568     1.0000000    0.0000000     1.0000000    0.0000000 
   0.036000000     1.0000000    0.0000000    -0.0001286    0.0000276     1.0000000    0.0000000     1.0000000    0.0000000 
   0.038000000     1.0000000    0.0000000    -0.0005737    0.0000997     1.0000000    0.0000000     1.0000000    0.0000000 
   0.040000000     1.0000000    0.0000000     0.0005376   -0.0000105     1.0000000    0.0000000     1.0000000    0.0000000 
   0.042000000     1.0000000    0.0000000     0.0000569   -0.0001462     1.0000000    0.0000000     1.0000000    0.0000000 
   0.044000000     1.0000000    0.0000000    -0.0001481   -0.0003201     1.0000000    0.0000000     1.0000000    0.0000000 
   0.046000000     1.0000000    0.0000000    -0.0007127    0.0011229     1.0000000    0.0000000     1.0000000    0.0000000 
   0.048000000     1.0000000    0.0000000     0.0003484    0.0003111     1.0000000    0.0000000     1.0000000    0.0000000 
   0.050000000     1.0000000    0.0000000     0.0003431    0.0000018     1.0000000    0.0000000     1.0000000    0.0000000 
   0.052000000     1.0000000    0.0000000     0.0002510   -0.0005607     1.0000000    0.0000000     1.0000000    0.0000000 
   0.054000000     1.0000000    0.0000000    -0.0014025    0.0002649     1.0000000    0.0000000     1.0000000    0.0000000 
   0.056000000     1.0000000    0.0000000     0.0000323    0.0003583     1.0000000    0.0000000     1.0000000    0.0000000 
   0.058000000     1.0000000    0.0000000     0.0003507    0.0003665     1.0000000    0.0000000     1.0000000    0.0000000 
   0.060000000     1.0000000    0.0000000     0.0005425   -0.0004059     1.0000000    0.0000000     1.0000000    0.0000000 
   0.062000000     1.0000000    0.0000000    -0.0014762   -0.0005772     1.0000000    0.0000000     1.0000000    0.0000000 
   0.064000000     1.0000000    0.0000000    -0.0003218    0.0007155     1.0000000    0.0000000     1.0000000    0.0000000 
   0.066000000     1.0000000    0.0000000     0.0003721    0.0006652     1.0000000    0.0000000     1.0000000    0.0000000 
   0.068000000     1.0000000    0.0000000     0.0012930   -0.0000570     1.0000000    0.0000000     1.0000000    0.0000000 
   0.070000000     1.0000000    0.0000000    -0.0014057   -0.0011387     1.0000000    0.0000000     1.0000000    0.0000000 
   0.072000000     1.0000000    0.0000000    -0.0010427    0.0003248     1.0000000    0.0000000     1.0000000    0.0000000 
   0.074000000     1.0000000    0.0000000    -0.0000685    0.0009784     1.0000000    0.0000000     1.0000000    0.0000000 
   0.076000000     1.0000000    0.0000000     0.0019052    0.0008325     1.0000000    0.0000000     1.0000000    0.0000000 
   0.078000000     1.0000000    0.0000000    -0.0002504   -0.0012833     1.0000000    0.0000000     1.0000000    0.0000000 
   0.080000000     1.0000000    0.0000000    -0.0007768   -0.0003145     1.0000000    0.0000000     1.0000000    0.0000000 
   0.082000000     1.0000000    0.0000000    -0.0008245    0.0009071     1.0000000    0.0000000     1.0000000    0.0000000 
   0.084000000     1.0000000    0.0000000     0.0016700    0.0017084     1.0000000    0.0000000     1.0000000    0.0000000 
   0.086000000     1.0000000    0.0000000     0.0005521   -0.0013391     1.0000000    0.0000000     1.0000000    0.0000000 
   0.088000000     1.0000000    0.0000000     0.0007001    0.0000508     1.0000000    0.0000000     1.0000000    0.0000000 
   0.090000000     1.0000000    0.0000000    -0.0010291   -0.0005016     1.0000000    0.0000000     1.0000000    0.0000000 
   0.092000000     1.0000000    0.0000000     0.0009422    0.0027940     1.0000000    0.0000000     1.0000000    0.0000000 
   0.094000000     1.0000000    0.0000000     0.0016482   -0.0008430     1.0000000    0.0000000     1.0000000    0.0000000 
   0.096000000     1.0000000    0.0000000     0.0004466   -0.0009888     1.0000000    0.0000000     1.0000000    0.0000000 
   0.098000000     1.0000000    0.0000000    -0.0015412   -0.0011912     1.0000000    0.0000000     1.0000000    0.0000000 
   0.100000000     1.0000000    0.0000000    -0.0014115    0.0030410     1.0000000    0.0000000     1.0000000    0.0000000 
   0.102000000     1.0000000    0.0000000     0.0015297    0.0007417     1.0000000    0.0000000     1.0000000    0.0000000 
   0.104000000     1.0000000    0.0000000     0.0014424   -0.0007943     1.0000000    0.0000000     1.0000000    0.0000000 
   0.106000000     1.0000000    0.0000000    -0.0010928   -0.0025375     1.0000000    0.0000000     1.0000000    0.0000000 
   0.108000000     1.0000000    0.0000000    -0.0025055    0.0025005     1.0000000    0.0000000     1.0000000    0.0000000 
   0.110000000     1.0000000    0.0000000     0.0014404    0.0021535     1.0000000    0.0000000     1.0000000    0.0000000 
   0.112000000     1.0000000    0.0000000     0.0024045    0.0002824     1.0000000    0.0000000     1.0000000    0.0000000 
   0.114000000     1.0000000    0.0000000     0.0005243   -0.0039213     1.0000000    0.0000000     1.0000000    0.0000000 
   0.116000000     1.0000000    0.0000000    -0.0031522    0.0004638     1.0000000    0.0000000     1.0000000    0.0000000 
   0.118000000     1.0000000    0.0000000    -0.0005456    0.0023388     1.0000000    0.0000000     1.0000000    0.0000000 
   0.120000000     1.0000000    0.0000000     0.0022102    0.0018658     1.0000000    0.0000000     1.0000000    0.0000000 
   0.122000000     1.0000000    0.0000000     0.0027475   -0.0025511     1.0000000    0.0000000     1.0000000    0.0000000 
   0.124000000     1.0000000    0.0000000    -0.0030000   -0.0014456     1.0000000    0.0000000     1.0000000    0.0000000 
   0.126000000     1.0000000    0.0000000    -0.0016037    0.0020642     1.0000000    0.0000000     1.0000000    0.0000000 
   0.128000000     1.0000000    0.0000000     0.0008763    0.0026734     1.0000000    0.0000000     1.0000000    0.0000000 
   0.130000000     1.0000000    0.0000000     0.0037635   -0.0003234     1.0000000    0.0000000     1.0000000    0.0000000 
   0.132000000     1.0000000    0.0000000    -0.0016647   -0.0037833     1.0000000    0.0000000     1.0000000    0.0000000 
   0.134000000     1.0000000    0.0000000    -0.0032644    0.0002399     1.0000000    0.0000000     1.0000000    0.0000000 
   0.136000000     1.0000000    0.0000000    -0.0008204    0.0035053     1.0000000    0.0000000     1.0000000    0.0000000 
   0.138000000     1.0000000    0.0000000     0.0045935    0.0013471     1.0000000    0.0000000     1.0000000    0.0000000 
   0.140000000     1.0000000    0.0000000     0.0011525   -0.0043849     1.0000000    0.0000000     1.0000000    0.0000000 
   0.142000000     1.0000000    0.0000000    -0.0035714   -0.0016670     1.0000000    0.0000000     1.0000000    0.0000000 
   0.144000000     1.0000000    0.0000000    -0.0028888    0.0030552     1.0000000    0.0000000     1.0000000    0.0000000 
   0.146000000     1.0000000    0.0000000     0.0036713    0.0035401     1.0000000    0.0000000     1.0000000    0.0000000 
   0.148000000     1.0000000    0.0000000     0.0026232   -0.0031428     1.0000000    0.0000000     1.0000000    0.0000000 
   0.150000000     1.0000000    0.0000000    -0.0018209   -0.0031114     1.0000000    0.0000000     1.0000000    0.0000000 
   0.152000000     1.0000000    0.0000000    -0.0038933    0.0006790     1.0000000    0.0000000     1.0000000    0.0000000 
   0.154000000     1.0000000    0.0000000     0.0012206    0.0053517     1.0000000    0.0000000     1.0000000    0.0000000 
   0.156000000     1.0000000    0.0000000     0.0036338   -0.0011017     1.0000000    0.0000000     1.0000000    0.0000000 
   0.158000000     1.0000000    0.0000000     0.0001128   -0.0035220     1.0000000    0.0000000     1.0000000    0.0000000 
   0.160000000     1.0000000    0.0000000    -0.0034196   -0.0016897     1.0000000    0.0000000     1.0000000    0.0000000 
   0.162000000     1.0000000    0.0000000    -0.0023995    0.0047499     1.0000000    0.0000000     1.0000000    0.0000000 
   0.164000000     1.0000000    0.0000000     0.0042498    0.0017295     1.0000000    0.0000000     1.0000000    0.0000000 
   0.166000000     1.0000000    0.0000000     0.0021493   -0.0023896     1.0000000    0.0000000     1.0000000    0.0000000 
   0.168000000     1.0000000    0.0000000    -0.0017103   -0.0037655     1.0000000    0.0000000     1.0000000    0.0000000 
   0.170000000     1.0000000    0.0000000    -0.0048829    0.0018351     1.0000000    0.0000000     1.0000000    0.0000000 
   0.172000000     1.0000000    0.0000000     0.0013488    0.0043002     1.0000000    0.0000000     1.0000000    0.0000000 
   0.174000000     1.0000000    0.0000000     0.0036661   -0.0002630     1.0000000    0.0000000     1.0000000    0.0000000 
   0.176000000     1.0000000    0.0000000     0.0017891   -0.0045175     1.0000000    0.0000000     1.0000000    0.0000000 
   0.178000000     1.0000000    0.0000000    -0.0053970   -0.0016682     1.0000000    0.0000000     1.0000000    0.0000000 
   0.180000000     1.0000000    0.0000000    -0.0016335    0.0045738     1.0000000    0.0000000     1.0000000    0.0000000 
   0.182000000     1.0000000    0.0000000     0.0028546    0.0031376     1.0000000    0.0000000     1.0000000    0.0000000 
   0.184000000     1.0000000    0.0000000     0.0048166   -0.0033954     1.0000000    0.0000000     1.0000000    0.0000000 
   0.186000000     1.0000000    0.0000000    -0.0045891   -0.0050121     1.0000000    0.0000000     1.0000000    0.0000000 
   0.188000000     1.0000000    0.0000000    -0.0037203    0.0029264     1.0000000    0.0000000     1.0000000    0.0000000 
   0.190000000     1.0000000    0.0000000     0.0010831    0.0043805     1.0000000    0.0000000     1.0000000    0.0000000 
   0.192000000     1.0000000    0.0000000     0.0064348   -0.0000025     1.0000000    0.0000000     1.0000000    0.0000000 
   0.194000000     1.0000000    0.0000000    -0.0018557   -0.0065847     1.0000000    0.0000000     1.0000000    0.0000000 
   0.196000000     1.0000000    0.0000000    -0.0052363    0.0004786     1.0000000    0.0000000     1.0000000    0.0000000 
   0.198000000     1.0000000    0.0000000    -0.0016540    0.0046468     1.0000000    0.0000000     1.0000000    0.0000000 
   0.200000000     1.0000000    0.0000000     0.0055041    0.0037146     1.0000000    0.0000000     1.0000000    0.0000000 
   0.202000000     1.0000000    0.0000000     0.0022387   -0.0062460     1.0000000    0.0000000     1.0000000    0.0000000 
   0.204000000     1.0000000    0.0000000    -0.0036155   -0.0021949     1.0000000    0.0000000     1.0000000    0.0000000 
   0.206000000     1.0000000    0.0000000    -0.0038106    0.0022166     1.0000000    0.0000000     1.0000000    0.0000000 
   0.208000000     1.0000000    0.0000000     0.0021637    0.0061095     1.0000000    0.0000000     1.0000000    0.0000000 
   0.210000000     1.0000000    0.0000000     0.0052707   -0.0037122     1.0000000    0.0000000     1.0000000    0.0000000 
   0.212000000     1.0000000    0.0000000    -0.0011233   -0.0043976     1.0000000    0.0000000     1.0000000    0.0000000 
   0.214000000     1.0000000    0.0000000    -0.0049477   -0.0009485     1.0000000    0.0000000     1.0000000    0.0000000 
   0.216000000     1.0000000    0.0000000    -0.0024770    0.0067224     1.0000000    0.0000000     1.0000000    0.0000000 
   0.218000000     1.0000000    0.0000000     0.0062656    0.0009094     1.0000000    0.0000000     1.0000000    0.0000000 
   0.220000000     1.0000000    0.0000000     0.0018491   -0.0042659     1.0000000    0.0000000     1.0000000    0.0000000 
   0.222000000     1.0000000    0.0000000    -0.0031307   -0.0046365     1.0000000    0.0000000     1.0000000    0.0000000 
   0.224000000     1.0000000    0.0000000    -0.0064002    0.0047672     1.0000000    0.0000000     1.0000000    0.0000000 
   0.226000000     1.0000000    0.0000000     0.0043717    0.0042863     1.0000000    0.0000000     1.0000000    0.0000000 
   0.228000000     1.0000000    0.0000000     0.0047221   -0.0019733     1.0000000    0.0000000     1.0000000    0.0000000 
   0.230000000     1.0000000    0.0000000     0.0002119   -0.0063814     1.0000000    0.0000000     1.0000000    0.0000000 
   0.232000000     1.0000000    0.0000000    -0.0086128    0.0010991     1.0000000    0.0000000     1.0000000    0.0000000 
   0.234000000     1.0000000    0.0000000     0.0010144    0.0059651     1.0000000    0.0000000     1.0000000    0.0000000 
   0.236000000     1.0000000    0.0000000     0.0049903    0.0012934     1.0000000    0.0000000     1.0000000    0.0000000 
   0.238000000     1.0000000    0.0000000     0.0036508   -0.0055731     1.0000000    0.0000000     1.0000000    0.0000000 
   0.240000000     1.0000000    0.0000000    -0.0080168   -0.0028424     1.0000000    0.0000000     1.0000000    0.0000000 
   0.242000000     1.0000000    0.0000000    -0.0030313    0.0052238     1.0000000    0.0000000     1.0000000    0.0000000 
   0.244000000     1.0000000    0.0000000     0.0025430    0.0039759     1.0000000    0.0000000     1.0000000    0.0000000 
   0.246000000     1.0000000    0.0000000     0.0068709   -0.0021120     1.0000000    0.0000000     1.0000000    0.0000000 
   0.248000000     1.0000000    0.0000000    -0.0042865   -0.0068905     1.0000000    0.0000000     1.0000000    0.0000000 
   0.250000000     1.0000000    0.0000000    -0.0043097    0.0015122     1.0000000    0.0000000     1.0000000    0.0000000 
   0.252000000     1.0000000    0.0000000    -0.0006459    0.0049982     1.0000000    0.0000000     1.0000000    0.0000000 
   0.254000000     1.0000000    0.0000000     0.0068337    0.0036846     1.0000000    0.0000000     1.0000000    0.0000000 
   0.256000000     1.0000000    0.0000000     0.0006947   -0.0074037     1.0000000    0.0000000     1.0000000    0.0000000 
   0.258000000     1.0000000    0.0000000    -0.0046927   -0.0024643     1.0000000    0.0000000     1.0000000    0.0000000 
   0.260000000     1.0000000    0.0000000    -0.0042428    0.0033870     1.0000000    0.0000000     1.0000000    0.0000000 
   0.262000000     1.0000000    0.0000000     0.0043760    0.0074216     1.0000000    0.0000000     1.0000000    0.0000000 
   0.264000000     1.0000000    0.0000000     0.0041868   -0.0059145     1.0000000    0.0000000     1.0000000    0.0000000 
   0.266000000     1.0000000    0.0000000    -0.0028992   -0.0040586     1.0000000    0.0000000     1.0000000    0.0000000 
   0.268000000     1.0000000    0.0000000    -0.0055077   -0.0003773     1.0000000    0.0000000     1.0000000    0.0000000 
   0.270000000     1.0000000    0.0000000    -0.0006343    0.0089550     1.0000000    0.0000000     1.0000000    0.0000000 
   0.272000000     1.0000000    0.0000000     0.0064915   -0.0017926     1.0000000    0.0000000     1.0000000    0.0000000 
   0.274000000     1.0000000    0.0000000     0.0008870   -0.0050323     1.0000000    0.0000000     1.0000000    0.0000000 
   0.276000000     1.0000000    0.0000000    -0.0045332   -0.0036756     1.0000000    0.0000000     1.0000000    0.0000000 
   0.278000000     1.0000000    0.0000000    -0.0062172    0.0075638     1.0000000    0.0000000     1.0000000    0.0000000 
   0.280000000     1.0000000    0.0000000     0.0060604    0.0024149     1.0000000    0.0000000     1.0000000    0.0000000 
   0.282000000     1.0000000    0.0000000     0.0032423   -0.0030453     1.0000000    0.0000000     1.0000000    0.0000000 
   0.284000000     1.0000000    0.0000000    -0.0014866   -0.0058321     1.0000000    0.0000000     1.0000000    0.0000000 
   0.286000000     1.0000000    0.0000000    -0.0069757    0.0031254     1.0000000    0.0000000     1.0000000    0.0000000 
   0.288000000     1.0000000    0.0000000     0.0022865    0.0053202     1.0000000    0.0000000     1.0000000    0.0000000 
   0.290000000     1.0000000    0.0000000     0.0042657    0.0004105     1.0000000    0.0000000     1.0000000    0.0000000 
   0.292000000     1.0000000    0.0000000     0.0029406   -0.0055824     1.0000000    0.0000000     1.0000000    0.0000000 
   0.294000000     1.0000000    0.0000000    -0.0078735   -0.0014780     1.0000000    0.0000000     1.0000000    0.0000000 
   0.296000000     1.0000000    0.0000000    -0.0013220    0.0047877     1.0000000    0.0000000     1.0000000    0.0000000 
   0.298000000     1.0000000    0.0000000     0.0027222    0.0035126     1.0000000    0.0000000     1.0000000    0.0000000 
   0.300000000     1.0000000    0.0000000     0.0067588   -0.0017513     1.0000000    0.0000000     1.0000000    0.0000000 
   0.302000000     1.0000000    0.0000000    -0.0049603   -0.0064827     1.0000000    0.0000000     1.0000000    0.0000000 
   0.304000000     1.0000000    0.0000000    -0.0041788    0.0020969     1.0000000    0.0000000     1.0000000    0.0000000 
   0.306000000     1.0000000    0.0000000    -0.0006672    0.0054587     1.0000000    0.0000000     1.0000000    0.0000000 
   0.308000000     1.0000000    0.0000000     0.0075534    0.0032322     1.0000000    0.0000000     1.0000000    0.0000000 
   0.310000000     1.0000000    0.0000000    -0.0006133   -0.0074517     1.0000000    0.0000000     1.0000000    0.0000000 
   0.312000000     1.0000000    0.0000000    -0.0051101   -0.0015733     1.0000000    0.0000000     1.0000000    0.0000000 
