! 8/16/2025 10:07:06 AM
! C:\ANRITSUVNA\TEMP\TEMP.S2P
! CHANNEL.1
! TR.MEASUREMENT
! RAW.DATA
! RF.CORRECTION.OFF
! AVERAGING.OFF
! IF.BANDWIDTH: 5KHZ
! SWEEPTYPE:  FREQ.SWEEP(Linear)
! Reference Plane Port Info
! PORT:              PORT1              PORT2             
! DISTANCE:          0  m               0  m              
! TIME:              0  s               0  s              
! PHASE.OFFSET:      0  deg.            0  deg.           
! LOSS:              0  dB              0  dB             
! REF.LOSS:          0  dB              0  dB             
! REF.FREQ:          0  Hz              0  Hz             
! Power Info
! POWER:             -20  dBm           -20  dBm          
! EFF.POWER:         -20  dBm           -20  dBm          
! SOURCE.ATTEN:      0  dB              0  dB             
! TEST.ATTEN:        0  dB              0  dB             
# GHZ S RI R 50.0
! FREQ.GHZ         S11RE         S11IM         S21RE         S21IM         S12RE         S12IM         S22RE         S22IM         
!; PortSelection: Port_12
   0.010000000     1.0000000    0.0000000     0.0001340   -0.0000761     1.0000000    0.0000000     1.0000000    0.0000000 
   0.012000000     1.0000000    0.0000000    -0.0000405   -0.0002250     1.0000000    0.0000000     1.0000000    0.0000000 
   0.014000000     1.0000000    0.0000000     0.0003372   -0.0000207     1.0000000    0.0000000     1.0000000    0.0000000 
   0.016000000     1.0000000    0.0000000    -0.0000023   -0.0001831     1.0000000    0.0000000     1.0000000    0.0000000 
   0.018000000     1.0000000    0.0000000    -0.0003031    0.0001353     1.0000000    0.0000000     1.0000000    0.0000000 
   0.020000000     1.0000000    0.0000000     0.0004559    0.0004426     1.0000000    0.0000000     1.0000000    0.0000000 
   0.022000000     1.0000000    0.0000000     0.0002549    0.0001494     1.0000000    0.0000000     1.0000000    0.0000000 
   0.024000000     1.0000000    0.0000000    -0.0000456   -0.0002044     1.0000000    0.0000000     1.0000000    0.0000000 
   0.026000000     1.0000000    0.0000000    -0.0000414   -0.0007307     1.0000000    0.0000000     1.0000000    0.0000000 
   0.028000000     1.0000000    0.0000000    -0.0004980    0.0002313     1.0000000    0.0000000     1.0000000    0.0000000 
   0.030000000     1.0000000    0.0000000    -0.0000445    0.0007498     1.0000000    0.0000000     1.0000000    0.0000000 
   0.032000000     1.0000000    0.0000000     0.0010217    0.0001449     1.0000000    0.0000000     1.0000000    0.0000000 
   0.034000000     1.0000000    0.0000000     0.0000069   -0.0008426     1.0000000    0.0000000     1.0000000    0.0000000 
   0.036000000     1.0000000    0.0000000    -0.0008893   -0.0001523     1.0000000    0.0000000     1.0000000    0.0000000 
   0.038000000     1.0000000    0.0000000    -0.0006145    0.0009847     1.0000000    0.0000000     1.0000000    0.0000000 
   0.040000000     1.0000000    0.0000000     0.0010126    0.0009098     1.0000000    0.0000000     1.0000000    0.0000000 
   0.042000000     1.0000000    0.0000000     0.0007758   -0.0008708     1.0000000    0.0000000     1.0000000    0.0000000 
   0.044000000     1.0000000    0.0000000    -0.0007472   -0.0015141     1.0000000    0.0000000     1.0000000    0.0000000 
   0.046000000     1.0000000    0.0000000    -0.0015976    0.0006440     1.0000000    0.0000000     1.0000000    0.0000000 
   0.048000000     1.0000000    0.0000000     0.0007338    0.0017141     1.0000000    0.0000000     1.0000000    0.0000000 
   0.050000000     1.0000000    0.0000000     0.0019936   -0.0003432     1.0000000    0.0000000     1.0000000    0.0000000 
   0.052000000     1.0000000    0.0000000    -0.0001866   -0.0025623     1.0000000    0.0000000     1.0000000    0.0000000 
   0.054000000     1.0000000    0.0000000    -0.0027263   -0.0001537     1.0000000    0.0000000     1.0000000    0.0000000 
   0.056000000     1.0000000    0.0000000    -0.0005937    0.0027521     1.0000000    0.0000000     1.0000000    0.0000000 
   0.058000000     1.0000000    0.0000000     0.0029112    0.0011432     1.0000000    0.0000000     1.0000000    0.0000000 
   0.060000000     1.0000000    0.0000000     0.0016256   -0.0030535     1.0000000    0.0000000     1.0000000    0.0000000 
   0.062000000     1.0000000    0.0000000    -0.0026171   -0.0018533     1.0000000    0.0000000     1.0000000    0.0000000 
   0.064000000     1.0000000    0.0000000    -0.0025471    0.0023024     1.0000000    0.0000000     1.0000000    0.0000000 
   0.066000000     1.0000000    0.0000000     0.0024835    0.0033280     1.0000000    0.0000000     1.0000000    0.0000000 
   0.068000000     1.0000000    0.0000000     0.0035978   -0.0020094     1.0000000    0.0000000     1.0000000    0.0000000 
   0.070000000     1.0000000    0.0000000    -0.0012234   -0.0039447     1.0000000    0.0000000     1.0000000    0.0000000 
   0.072000000     1.0000000    0.0000000    -0.0049172    0.0007633     1.0000000    0.0000000     1.0000000    0.0000000 
   0.074000000     1.0000000    0.0000000     0.0005229    0.0052449     1.0000000    0.0000000     1.0000000    0.0000000 
   0.076000000     1.0000000    0.0000000     0.0051510    0.0006204     1.0000000    0.0000000     1.0000000    0.0000000 
   0.078000000     1.0000000    0.0000000     0.0017642   -0.0048366     1.0000000    0.0000000     1.0000000    0.0000000 
   0.080000000     1.0000000    0.0000000    -0.0052607   -0.0025066     1.0000000    0.0000000     1.0000000    0.0000000 
   0.082000000     1.0000000    0.0000000    -0.0028387    0.0049655     1.0000000    0.0000000     1.0000000    0.0000000 
   0.084000000     1.0000000    0.0000000     0.0046879    0.0042647     1.0000000    0.0000000     1.0000000    0.0000000 
   0.086000000     1.0000000    0.0000000     0.0051912   -0.0040802     1.0000000    0.0000000     1.0000000    0.0000000 
   0.088000000     1.0000000    0.0000000    -0.0010785   -0.0083834     1.0000000    0.0000000     1.0000000    0.0000000 
   0.090000000     1.0000000    0.0000000    -0.0062920    0.0027520     1.0000000    0.0000000     1.0000000    0.0000000 
   0.092000000     1.0000000    0.0000000     0.0015504    0.0071991     1.0000000    0.0000000     1.0000000    0.0000000 
   0.094000000     1.0000000    0.0000000     0.0085769   -0.0004401     1.0000000    0.0000000     1.0000000    0.0000000 
   0.096000000     1.0000000    0.0000000     0.0004467   -0.0085072     1.0000000    0.0000000     1.0000000    0.0000000 
   0.098000000     1.0000000    0.0000000    -0.0095428   -0.0023707     1.0000000    0.0000000     1.0000000    0.0000000 
   0.100000000     1.0000000    0.0000000    -0.0033378    0.0083277     1.0000000    0.0000000     1.0000000    0.0000000 
   0.102000000     1.0000000    0.0000000     0.0088751    0.0052668     1.0000000    0.0000000     1.0000000    0.0000000 
   0.104000000     1.0000000    0.0000000     0.0062957   -0.0078463     1.0000000    0.0000000     1.0000000    0.0000000 
   0.106000000     1.0000000    0.0000000    -0.0073752   -0.0079499     1.0000000    0.0000000     1.0000000    0.0000000 
   0.108000000     1.0000000    0.0000000    -0.0087837    0.0065525     1.0000000    0.0000000     1.0000000    0.0000000 
   0.110000000     1.0000000    0.0000000     0.0063083    0.0120228     1.0000000    0.0000000     1.0000000    0.0000000 
   0.112000000     1.0000000    0.0000000     0.0101533   -0.0037785     1.0000000    0.0000000     1.0000000    0.0000000 
   0.114000000     1.0000000    0.0000000    -0.0018772   -0.0107905     1.0000000    0.0000000     1.0000000    0.0000000 
   0.116000000     1.0000000    0.0000000    -0.0118571    0.0001972     1.0000000    0.0000000     1.0000000    0.0000000 
   0.118000000     1.0000000    0.0000000    -0.0012036    0.0114767     1.0000000    0.0000000     1.0000000    0.0000000 
   0.120000000     1.0000000    0.0000000     0.0109220    0.0035943     1.0000000    0.0000000     1.0000000    0.0000000 
   0.122000000     1.0000000    0.0000000     0.0052839   -0.0109266     1.0000000    0.0000000     1.0000000    0.0000000 
   0.124000000     1.0000000    0.0000000    -0.0100569   -0.0076570     1.0000000    0.0000000     1.0000000    0.0000000 
   0.126000000     1.0000000    0.0000000    -0.0091429    0.0090231     1.0000000    0.0000000     1.0000000    0.0000000 
   0.128000000     1.0000000    0.0000000     0.0074636    0.0105982     1.0000000    0.0000000     1.0000000    0.0000000 
   0.130000000     1.0000000    0.0000000     0.0125593   -0.0054058     1.0000000    0.0000000     1.0000000    0.0000000 
   0.132000000     1.0000000    0.0000000    -0.0040915   -0.0140684     1.0000000    0.0000000     1.0000000    0.0000000 
   0.134000000     1.0000000    0.0000000    -0.0148115    0.0020863     1.0000000    0.0000000     1.0000000    0.0000000 
   0.136000000     1.0000000    0.0000000    -0.0004324    0.0154321     1.0000000    0.0000000     1.0000000    0.0000000 
   0.138000000     1.0000000    0.0000000     0.0159861    0.0028462     1.0000000    0.0000000     1.0000000    0.0000000 
   0.140000000     1.0000000    0.0000000     0.0050997   -0.0155835     1.0000000    0.0000000     1.0000000    0.0000000 
   0.142000000     1.0000000    0.0000000    -0.0154722   -0.0070466     1.0000000    0.0000000     1.0000000    0.0000000 
   0.144000000     1.0000000    0.0000000    -0.0098214    0.0141068     1.0000000    0.0000000     1.0000000    0.0000000 
   0.146000000     1.0000000    0.0000000     0.0133591    0.0115824     1.0000000    0.0000000     1.0000000    0.0000000 
   0.148000000     1.0000000    0.0000000     0.0128513   -0.0115462     1.0000000    0.0000000     1.0000000    0.0000000 
   0.150000000     1.0000000    0.0000000    -0.0093425   -0.0145471     1.0000000    0.0000000     1.0000000    0.0000000 
   0.152000000     1.0000000    0.0000000    -0.0158195    0.0068113     1.0000000    0.0000000     1.0000000    0.0000000 
   0.154000000     1.0000000    0.0000000     0.0048436    0.0166330     1.0000000    0.0000000     1.0000000    0.0000000 
   0.156000000     1.0000000    0.0000000     0.0165750   -0.0021539     1.0000000    0.0000000     1.0000000    0.0000000 
   0.158000000     1.0000000    0.0000000     0.0010332   -0.0165367     1.0000000    0.0000000     1.0000000    0.0000000 
   0.160000000     1.0000000    0.0000000    -0.0163347   -0.0041481     1.0000000    0.0000000     1.0000000    0.0000000 
   0.162000000     1.0000000    0.0000000    -0.0065221    0.0154959     1.0000000    0.0000000     1.0000000    0.0000000 
   0.164000000     1.0000000    0.0000000     0.0138920    0.0090379     1.0000000    0.0000000     1.0000000    0.0000000 
   0.166000000     1.0000000    0.0000000     0.0118510   -0.0118116     1.0000000    0.0000000     1.0000000    0.0000000 
   0.168000000     1.0000000    0.0000000    -0.0091438   -0.0140113     1.0000000    0.0000000     1.0000000    0.0000000 
   0.170000000     1.0000000    0.0000000    -0.0161795    0.0071152     1.0000000    0.0000000     1.0000000    0.0000000 
   0.172000000     1.0000000    0.0000000     0.0042239    0.0173253     1.0000000    0.0000000     1.0000000    0.0000000 
   0.174000000     1.0000000    0.0000000     0.0180516   -0.0006504     1.0000000    0.0000000     1.0000000    0.0000000 
   0.176000000     1.0000000    0.0000000     0.0024949   -0.0187681     1.0000000    0.0000000     1.0000000    0.0000000 
   0.178000000     1.0000000    0.0000000    -0.0190329   -0.0056123     1.0000000    0.0000000     1.0000000    0.0000000 
   0.180000000     1.0000000    0.0000000    -0.0088734    0.0180492     1.0000000    0.0000000     1.0000000    0.0000000 
   0.182000000     1.0000000    0.0000000     0.0164719    0.0120289     1.0000000    0.0000000     1.0000000    0.0000000 
   0.184000000     1.0000000    0.0000000     0.0158917   -0.0153600     1.0000000    0.0000000     1.0000000    0.0000000 
   0.186000000     1.0000000    0.0000000    -0.0138467   -0.0178464     1.0000000    0.0000000     1.0000000    0.0000000 
   0.188000000     1.0000000    0.0000000    -0.0204927    0.0114229     1.0000000    0.0000000     1.0000000    0.0000000 
   0.190000000     1.0000000    0.0000000     0.0082570    0.0224022     1.0000000    0.0000000     1.0000000    0.0000000 
   0.192000000     1.0000000    0.0000000     0.0237121   -0.0050648     1.0000000    0.0000000     1.0000000    0.0000000 
   0.194000000     1.0000000    0.0000000    -0.0021230   -0.0243914     1.0000000    0.0000000     1.0000000    0.0000000 
   0.196000000     1.0000000    0.0000000    -0.0244466   -0.0013420     1.0000000    0.0000000     1.0000000    0.0000000 
   0.198000000     1.0000000    0.0000000    -0.0047630    0.0241562     1.0000000    0.0000000     1.0000000    0.0000000 
   0.200000000     1.0000000    0.0000000     0.0229823    0.0083139     1.0000000    0.0000000     1.0000000    0.0000000 
   0.202000000     1.0000000    0.0000000     0.0116682   -0.0213779     1.0000000    0.0000000     1.0000000    0.0000000 
   0.204000000     1.0000000    0.0000000    -0.0187488   -0.0145408     1.0000000    0.0000000     1.0000000    0.0000000 
   0.206000000     1.0000000    0.0000000    -0.0169828    0.0160198     1.0000000    0.0000000     1.0000000    0.0000000 
   0.208000000     1.0000000    0.0000000     0.0110665    0.0143234     1.0000000    0.0000000     1.0000000    0.0000000 
   0.210000000     1.0000000    0.0000000     0.0214097   -0.0095170     1.0000000    0.0000000     1.0000000    0.0000000 
   0.212000000     1.0000000    0.0000000    -0.0049398   -0.0223700     1.0000000    0.0000000     1.0000000    0.0000000 
   0.214000000     1.0000000    0.0000000    -0.0228979    0.0011974     1.0000000    0.0000000     1.0000000    0.0000000 
   0.216000000     1.0000000    0.0000000    -0.0031935    0.0232674     1.0000000    0.0000000     1.0000000    0.0000000 
   0.218000000     1.0000000    0.0000000     0.0226662    0.0073630     1.0000000    0.0000000     1.0000000    0.0000000 
   0.220000000     1.0000000    0.0000000     0.0113581   -0.0205675     1.0000000    0.0000000     1.0000000    0.0000000 
   0.222000000     1.0000000    0.0000000    -0.0189345   -0.0155941     1.0000000    0.0000000     1.0000000    0.0000000 
   0.224000000     1.0000000    0.0000000    -0.0190315    0.0174547     1.0000000    0.0000000     1.0000000    0.0000000 
   0.226000000     1.0000000    0.0000000     0.0142297    0.0211473     1.0000000    0.0000000     1.0000000    0.0000000 
   0.228000000     1.0000000    0.0000000     0.0237587   -0.0103572     1.0000000    0.0000000     1.0000000    0.0000000 
   0.230000000     1.0000000    0.0000000    -0.0069885   -0.0260943     1.0000000    0.0000000     1.0000000    0.0000000 
   0.232000000     1.0000000    0.0000000    -0.0272175    0.0034483     1.0000000    0.0000000     1.0000000    0.0000000 
   0.234000000     1.0000000    0.0000000    -0.0008810    0.0269929     1.0000000    0.0000000     1.0000000    0.0000000 
   0.236000000     1.0000000    0.0000000     0.0270610    0.0050782     1.0000000    0.0000000     1.0000000    0.0000000 
   0.238000000     1.0000000    0.0000000     0.0089470   -0.0258954     1.0000000    0.0000000     1.0000000    0.0000000 
   0.240000000     1.0000000    0.0000000    -0.0238925   -0.0126958     1.0000000    0.0000000     1.0000000    0.0000000 
   0.242000000     1.0000000    0.0000000    -0.0162824    0.0218863     1.0000000    0.0000000     1.0000000    0.0000000 
   0.244000000     1.0000000    0.0000000     0.0187702    0.0190096     1.0000000    0.0000000     1.0000000    0.0000000 
   0.246000000     1.0000000    0.0000000     0.0213911   -0.0150601     1.0000000    0.0000000     1.0000000    0.0000000 
   0.248000000     1.0000000    0.0000000    -0.0106882   -0.0235915     1.0000000    0.0000000     1.0000000    0.0000000 
   0.250000000     1.0000000    0.0000000    -0.0256572    0.0063775     1.0000000    0.0000000     1.0000000    0.0000000 
   0.252000000     1.0000000    0.0000000     0.0020203    0.0256643     1.0000000    0.0000000     1.0000000    0.0000000 
   0.254000000     1.0000000    0.0000000     0.0258553    0.0026080     1.0000000    0.0000000     1.0000000    0.0000000 
   0.256000000     1.0000000    0.0000000     0.0071888   -0.0254776     1.0000000    0.0000000     1.0000000    0.0000000 
   0.258000000     1.0000000    0.0000000    -0.0234497   -0.0118188     1.0000000    0.0000000     1.0000000    0.0000000 
   0.260000000     1.0000000    0.0000000    -0.0166382    0.0216122     1.0000000    0.0000000     1.0000000    0.0000000 
   0.262000000     1.0000000    0.0000000     0.0198459    0.0196129     1.0000000    0.0000000     1.0000000    0.0000000 
   0.264000000     1.0000000    0.0000000     0.0212497   -0.0150357     1.0000000    0.0000000     1.0000000    0.0000000 
   0.266000000     1.0000000    0.0000000    -0.0105513   -0.0245676     1.0000000    0.0000000     1.0000000    0.0000000 
   0.268000000     1.0000000    0.0000000    -0.0276006    0.0067692     1.0000000    0.0000000     1.0000000    0.0000000 
   0.270000000     1.0000000    0.0000000     0.0035233    0.0281562     1.0000000    0.0000000     1.0000000    0.0000000 
   0.272000000     1.0000000    0.0000000     0.0273389    0.0021782     1.0000000    0.0000000     1.0000000    0.0000000 
   0.274000000     1.0000000    0.0000000     0.0073074   -0.0275488     1.0000000    0.0000000     1.0000000    0.0000000 
   0.276000000     1.0000000    0.0000000    -0.0274405   -0.0107770     1.0000000    0.0000000     1.0000000    0.0000000 
   0.278000000     1.0000000    0.0000000    -0.0145628    0.0247567     1.0000000    0.0000000     1.0000000    0.0000000 
   0.280000000     1.0000000    0.0000000     0.0208823    0.0184090     1.0000000    0.0000000     1.0000000    0.0000000 
   0.282000000     1.0000000    0.0000000     0.0238126   -0.0183485     1.0000000    0.0000000     1.0000000    0.0000000 
   0.284000000     1.0000000    0.0000000    -0.0160190   -0.0266312     1.0000000    0.0000000     1.0000000    0.0000000 
   0.286000000     1.0000000    0.0000000    -0.0274857    0.0127008     1.0000000    0.0000000     1.0000000    0.0000000 
   0.288000000     1.0000000    0.0000000     0.0073207    0.0276925     1.0000000    0.0000000     1.0000000    0.0000000 
   0.290000000     1.0000000    0.0000000     0.0278929   -0.0026173     1.0000000    0.0000000     1.0000000    0.0000000 
   0.292000000     1.0000000    0.0000000     0.0027095   -0.0272073     1.0000000    0.0000000     1.0000000    0.0000000 
   0.294000000     1.0000000    0.0000000    -0.0264389   -0.0073621     1.0000000    0.0000000     1.0000000    0.0000000 
   0.296000000     1.0000000    0.0000000    -0.0121838    0.0243776     1.0000000    0.0000000     1.0000000    0.0000000 
   0.298000000     1.0000000    0.0000000     0.0213379    0.0161530     1.0000000    0.0000000     1.0000000    0.0000000 
   0.300000000     1.0000000    0.0000000     0.0203490   -0.0170726     1.0000000    0.0000000     1.0000000    0.0000000 
   0.302000000     1.0000000    0.0000000    -0.0139231   -0.0240393     1.0000000    0.0000000     1.0000000    0.0000000 
   0.304000000     1.0000000    0.0000000    -0.0259088    0.0097757     1.0000000    0.0000000     1.0000000    0.0000000 
   0.306000000     1.0000000    0.0000000     0.0044046    0.0277122     1.0000000    0.0000000     1.0000000    0.0000000 
   0.308000000     1.0000000    0.0000000     0.0297625    0.0006410     1.0000000    0.0000000     1.0000000    0.0000000 
   0.310000000     1.0000000    0.0000000     0.0037540   -0.0299142     1.0000000    0.0000000     1.0000000    0.0000000 
   0.312000000     1.0000000    0.0000000    -0.0278116   -0.0089574     1.0000000    0.0000000     1.0000000    0.0000000 
