! 8/16/2025 2:04:49 AM
! C:\ANRITSUVNA\TEMP\TEMP.S2P
! CHANNEL.1
! TR.MEASUREMENT
! RAW.DATA
! RF.CORRECTION.OFF
! AVERAGING.OFF
! IF.BANDWIDTH: 5KHZ
! SWEEPTYPE:  FREQ.SWEEP(Linear)
! Reference Plane Port Info
! PORT:              PORT1              PORT2             
! DISTANCE:          0  m               0  m              
! TIME:              0  s               0  s              
! PHASE.OFFSET:      0  deg.            0  deg.           
! LOSS:              0  dB              0  dB             
! REF.LOSS:          0  dB              0  dB             
! REF.FREQ:          0  Hz              0  Hz             
! Power Info
! POWER:             -20  dBm           -20  dBm          
! EFF.POWER:         -20  dBm           -20  dBm          
! SOURCE.ATTEN:      0  dB              0  dB             
! TEST.ATTEN:        0  dB              0  dB             
# GHZ S RI R 50.0
! FREQ.GHZ         S11RE         S11IM         S21RE         S21IM         S12RE         S12IM         S22RE         S22IM         
!; PortSelection: Port_12
   0.010000000     1.0000000    0.0000000     0.0002239   -0.0000988     1.0000000    0.0000000     1.0000000    0.0000000 
   0.012000000     1.0000000    0.0000000     0.0000275   -0.0006268     1.0000000    0.0000000     1.0000000    0.0000000 
   0.014000000     1.0000000    0.0000000     0.0002113    0.0001401     1.0000000    0.0000000     1.0000000    0.0000000 
   0.016000000     1.0000000    0.0000000     0.0002909    0.0012228     1.0000000    0.0000000     1.0000000    0.0000000 
   0.018000000     1.0000000    0.0000000     0.0000523   -0.0000839     1.0000000    0.0000000     1.0000000    0.0000000 
   0.020000000     1.0000000    0.0000000    -0.0001359    0.0000978     1.0000000    0.0000000     1.0000000    0.0000000 
   0.022000000     1.0000000    0.0000000    -0.0001430   -0.0000535     1.0000000    0.0000000     1.0000000    0.0000000 
   0.024000000     1.0000000    0.0000000    -0.0001054   -0.0001478     1.0000000    0.0000000     1.0000000    0.0000000 
   0.026000000     1.0000000    0.0000000    -0.0000750   -0.0002188     1.0000000    0.0000000     1.0000000    0.0000000 
   0.028000000     1.0000000    0.0000000     0.0000167   -0.0003488     1.0000000    0.0000000     1.0000000    0.0000000 
   0.030000000     1.0000000    0.0000000    -0.0001095    0.0001231     1.0000000    0.0000000     1.0000000    0.0000000 
   0.032000000     1.0000000    0.0000000     0.0003820   -0.0000833     1.0000000    0.0000000     1.0000000    0.0000000 
   0.034000000     1.0000000    0.0000000     0.0001786   -0.0002131     1.0000000    0.0000000     1.0000000    0.0000000 
   0.036000000     1.0000000    0.0000000    -0.0002269   -0.0000156     1.0000000    0.0000000     1.0000000    0.0000000 
   0.038000000     1.0000000    0.0000000    -0.0003349    0.0001670     1.0000000    0.0000000     1.0000000    0.0000000 
   0.040000000     1.0000000    0.0000000     0.0004244    0.0000795     1.0000000    0.0000000     1.0000000    0.0000000 
   0.042000000     1.0000000    0.0000000     0.0002150   -0.0003297     1.0000000    0.0000000     1.0000000    0.0000000 
   0.044000000     1.0000000    0.0000000     0.0000773   -0.0003479     1.0000000    0.0000000     1.0000000    0.0000000 
   0.046000000     1.0000000    0.0000000    -0.0010816    0.0006068     1.0000000    0.0000000     1.0000000    0.0000000 
   0.048000000     1.0000000    0.0000000     0.0003167    0.0003709     1.0000000    0.0000000     1.0000000    0.0000000 
   0.050000000     1.0000000    0.0000000     0.0004651   -0.0001427     1.0000000    0.0000000     1.0000000    0.0000000 
   0.052000000     1.0000000    0.0000000     0.0002184   -0.0004820     1.0000000    0.0000000     1.0000000    0.0000000 
   0.054000000     1.0000000    0.0000000    -0.0015572    0.0000973     1.0000000    0.0000000     1.0000000    0.0000000 
   0.056000000     1.0000000    0.0000000     0.0000000    0.0005026     1.0000000    0.0000000     1.0000000    0.0000000 
   0.058000000     1.0000000    0.0000000     0.0006464    0.0003422     1.0000000    0.0000000     1.0000000    0.0000000 
   0.060000000     1.0000000    0.0000000     0.0011241   -0.0002451     1.0000000    0.0000000     1.0000000    0.0000000 
   0.062000000     1.0000000    0.0000000    -0.0016711   -0.0006394     1.0000000    0.0000000     1.0000000    0.0000000 
   0.064000000     1.0000000    0.0000000    -0.0005284    0.0008745     1.0000000    0.0000000     1.0000000    0.0000000 
   0.066000000     1.0000000    0.0000000     0.0003596    0.0005288     1.0000000    0.0000000     1.0000000    0.0000000 
   0.068000000     1.0000000    0.0000000     0.0013032   -0.0002875     1.0000000    0.0000000     1.0000000    0.0000000 
   0.070000000     1.0000000    0.0000000    -0.0010106   -0.0013425     1.0000000    0.0000000     1.0000000    0.0000000 
   0.072000000     1.0000000    0.0000000    -0.0008038    0.0003407     1.0000000    0.0000000     1.0000000    0.0000000 
   0.074000000     1.0000000    0.0000000    -0.0003893    0.0009407     1.0000000    0.0000000     1.0000000    0.0000000 
   0.076000000     1.0000000    0.0000000     0.0024270   -0.0002739     1.0000000    0.0000000     1.0000000    0.0000000 
   0.078000000     1.0000000    0.0000000    -0.0000828   -0.0016738     1.0000000    0.0000000     1.0000000    0.0000000 
   0.080000000     1.0000000    0.0000000    -0.0009699   -0.0004875     1.0000000    0.0000000     1.0000000    0.0000000 
   0.082000000     1.0000000    0.0000000    -0.0014015    0.0007536     1.0000000    0.0000000     1.0000000    0.0000000 
   0.084000000     1.0000000    0.0000000     0.0017864    0.0018376     1.0000000    0.0000000     1.0000000    0.0000000 
   0.086000000     1.0000000    0.0000000     0.0010121   -0.0014704     1.0000000    0.0000000     1.0000000    0.0000000 
   0.088000000     1.0000000    0.0000000    -0.0005967   -0.0014986     1.0000000    0.0000000     1.0000000    0.0000000 
   0.090000000     1.0000000    0.0000000    -0.0023199   -0.0000391     1.0000000    0.0000000     1.0000000    0.0000000 
   0.092000000     1.0000000    0.0000000     0.0006846    0.0032601     1.0000000    0.0000000     1.0000000    0.0000000 
   0.094000000     1.0000000    0.0000000     0.0021070   -0.0007149     1.0000000    0.0000000     1.0000000    0.0000000 
   0.096000000     1.0000000    0.0000000     0.0002211   -0.0018646     1.0000000    0.0000000     1.0000000    0.0000000 
   0.098000000     1.0000000    0.0000000    -0.0021080   -0.0016559     1.0000000    0.0000000     1.0000000    0.0000000 
   0.100000000     1.0000000    0.0000000    -0.0016080    0.0037570     1.0000000    0.0000000     1.0000000    0.0000000 
   0.102000000     1.0000000    0.0000000     0.0024063    0.0007145     1.0000000    0.0000000     1.0000000    0.0000000 
   0.104000000     1.0000000    0.0000000     0.0017862   -0.0015552     1.0000000    0.0000000     1.0000000    0.0000000 
   0.106000000     1.0000000    0.0000000    -0.0016099   -0.0027914     1.0000000    0.0000000     1.0000000    0.0000000 
   0.108000000     1.0000000    0.0000000    -0.0029759    0.0028057     1.0000000    0.0000000     1.0000000    0.0000000 
   0.110000000     1.0000000    0.0000000     0.0016264    0.0021977     1.0000000    0.0000000     1.0000000    0.0000000 
   0.112000000     1.0000000    0.0000000     0.0029540   -0.0003251     1.0000000    0.0000000     1.0000000    0.0000000 
   0.114000000     1.0000000    0.0000000     0.0004230   -0.0040478     1.0000000    0.0000000     1.0000000    0.0000000 
   0.116000000     1.0000000    0.0000000    -0.0039425    0.0004865     1.0000000    0.0000000     1.0000000    0.0000000 
   0.118000000     1.0000000    0.0000000    -0.0003550    0.0031272     1.0000000    0.0000000     1.0000000    0.0000000 
   0.120000000     1.0000000    0.0000000     0.0025857    0.0013141     1.0000000    0.0000000     1.0000000    0.0000000 
   0.122000000     1.0000000    0.0000000     0.0029959   -0.0030986     1.0000000    0.0000000     1.0000000    0.0000000 
   0.124000000     1.0000000    0.0000000    -0.0038531   -0.0024470     1.0000000    0.0000000     1.0000000    0.0000000 
   0.126000000     1.0000000    0.0000000    -0.0020163    0.0023452     1.0000000    0.0000000     1.0000000    0.0000000 
   0.128000000     1.0000000    0.0000000     0.0012346    0.0034019     1.0000000    0.0000000     1.0000000    0.0000000 
   0.130000000     1.0000000    0.0000000     0.0048630   -0.0008020     1.0000000    0.0000000     1.0000000    0.0000000 
   0.132000000     1.0000000    0.0000000    -0.0015754   -0.0048307     1.0000000    0.0000000     1.0000000    0.0000000 
   0.134000000     1.0000000    0.0000000    -0.0042216    0.0003913     1.0000000    0.0000000     1.0000000    0.0000000 
   0.136000000     1.0000000    0.0000000    -0.0009918    0.0041096     1.0000000    0.0000000     1.0000000    0.0000000 
   0.138000000     1.0000000    0.0000000     0.0055200    0.0020245     1.0000000    0.0000000     1.0000000    0.0000000 
   0.140000000     1.0000000    0.0000000     0.0016745   -0.0050808     1.0000000    0.0000000     1.0000000    0.0000000 
   0.142000000     1.0000000    0.0000000    -0.0042569   -0.0022692     1.0000000    0.0000000     1.0000000    0.0000000 
   0.144000000     1.0000000    0.0000000    -0.0037181    0.0039413     1.0000000    0.0000000     1.0000000    0.0000000 
   0.146000000     1.0000000    0.0000000     0.0048384    0.0044993     1.0000000    0.0000000     1.0000000    0.0000000 
   0.148000000     1.0000000    0.0000000     0.0038791   -0.0039233     1.0000000    0.0000000     1.0000000    0.0000000 
   0.150000000     1.0000000    0.0000000    -0.0019910   -0.0040743     1.0000000    0.0000000     1.0000000    0.0000000 
   0.152000000     1.0000000    0.0000000    -0.0055185    0.0012625     1.0000000    0.0000000     1.0000000    0.0000000 
   0.154000000     1.0000000    0.0000000     0.0018447    0.0062133     1.0000000    0.0000000     1.0000000    0.0000000 
   0.156000000     1.0000000    0.0000000     0.0049434   -0.0013926     1.0000000    0.0000000     1.0000000    0.0000000 
   0.158000000     1.0000000    0.0000000     0.0003829   -0.0044644     1.0000000    0.0000000     1.0000000    0.0000000 
   0.160000000     1.0000000    0.0000000    -0.0044838   -0.0023672     1.0000000    0.0000000     1.0000000    0.0000000 
   0.162000000     1.0000000    0.0000000    -0.0029784    0.0055657     1.0000000    0.0000000     1.0000000    0.0000000 
   0.164000000     1.0000000    0.0000000     0.0045770    0.0024711     1.0000000    0.0000000     1.0000000    0.0000000 
   0.166000000     1.0000000    0.0000000     0.0033202   -0.0030630     1.0000000    0.0000000     1.0000000    0.0000000 
   0.168000000     1.0000000    0.0000000    -0.0018491   -0.0045873     1.0000000    0.0000000     1.0000000    0.0000000 
   0.170000000     1.0000000    0.0000000    -0.0059588    0.0018626     1.0000000    0.0000000     1.0000000    0.0000000 
   0.172000000     1.0000000    0.0000000     0.0017665    0.0054455     1.0000000    0.0000000     1.0000000    0.0000000 
   0.174000000     1.0000000    0.0000000     0.0047380    0.0000271     1.0000000    0.0000000     1.0000000    0.0000000 
   0.176000000     1.0000000    0.0000000     0.0021359   -0.0058355     1.0000000    0.0000000     1.0000000    0.0000000 
   0.178000000     1.0000000    0.0000000    -0.0070613   -0.0020422     1.0000000    0.0000000     1.0000000    0.0000000 
   0.180000000     1.0000000    0.0000000    -0.0017678    0.0057678     1.0000000    0.0000000     1.0000000    0.0000000 
   0.182000000     1.0000000    0.0000000     0.0040615    0.0034964     1.0000000    0.0000000     1.0000000    0.0000000 
   0.184000000     1.0000000    0.0000000     0.0059462   -0.0045715     1.0000000    0.0000000     1.0000000    0.0000000 
   0.186000000     1.0000000    0.0000000    -0.0028634   -0.0067065     1.0000000    0.0000000     1.0000000    0.0000000 
   0.188000000     1.0000000    0.0000000    -0.0052267    0.0038804     1.0000000    0.0000000     1.0000000    0.0000000 
   0.190000000     1.0000000    0.0000000     0.0017395    0.0062595     1.0000000    0.0000000     1.0000000    0.0000000 
   0.192000000     1.0000000    0.0000000     0.0078919    0.0002551     1.0000000    0.0000000     1.0000000    0.0000000 
   0.194000000     1.0000000    0.0000000    -0.0012831   -0.0086276     1.0000000    0.0000000     1.0000000    0.0000000 
   0.196000000     1.0000000    0.0000000    -0.0064246    0.0001439     1.0000000    0.0000000     1.0000000    0.0000000 
   0.198000000     1.0000000    0.0000000    -0.0021925    0.0060341     1.0000000    0.0000000     1.0000000    0.0000000 
   0.200000000     1.0000000    0.0000000     0.0069909    0.0047397     1.0000000    0.0000000     1.0000000    0.0000000 
   0.202000000     1.0000000    0.0000000     0.0031994   -0.0077989     1.0000000    0.0000000     1.0000000    0.0000000 
   0.204000000     1.0000000    0.0000000    -0.0050560   -0.0031102     1.0000000    0.0000000     1.0000000    0.0000000 
   0.206000000     1.0000000    0.0000000    -0.0052106    0.0031924     1.0000000    0.0000000     1.0000000    0.0000000 
   0.208000000     1.0000000    0.0000000     0.0029164    0.0079238     1.0000000    0.0000000     1.0000000    0.0000000 
   0.210000000     1.0000000    0.0000000     0.0068239   -0.0041308     1.0000000    0.0000000     1.0000000    0.0000000 
   0.212000000     1.0000000    0.0000000    -0.0015893   -0.0057519     1.0000000    0.0000000     1.0000000    0.0000000 
   0.214000000     1.0000000    0.0000000    -0.0060995   -0.0011855     1.0000000    0.0000000     1.0000000    0.0000000 
   0.216000000     1.0000000    0.0000000    -0.0023073    0.0085615     1.0000000    0.0000000     1.0000000    0.0000000 
   0.218000000     1.0000000    0.0000000     0.0076211    0.0009877     1.0000000    0.0000000     1.0000000    0.0000000 
   0.220000000     1.0000000    0.0000000     0.0028358   -0.0055587     1.0000000    0.0000000     1.0000000    0.0000000 
   0.222000000     1.0000000    0.0000000    -0.0042067   -0.0055739     1.0000000    0.0000000     1.0000000    0.0000000 
   0.224000000     1.0000000    0.0000000    -0.0076390    0.0059374     1.0000000    0.0000000     1.0000000    0.0000000 
   0.226000000     1.0000000    0.0000000     0.0053871    0.0056832     1.0000000    0.0000000     1.0000000    0.0000000 
   0.228000000     1.0000000    0.0000000     0.0058575   -0.0028361     1.0000000    0.0000000     1.0000000    0.0000000 
   0.230000000     1.0000000    0.0000000    -0.0000269   -0.0080082     1.0000000    0.0000000     1.0000000    0.0000000 
   0.232000000     1.0000000    0.0000000    -0.0101816    0.0012960     1.0000000    0.0000000     1.0000000    0.0000000 
   0.234000000     1.0000000    0.0000000     0.0014060    0.0078212     1.0000000    0.0000000     1.0000000    0.0000000 
   0.236000000     1.0000000    0.0000000     0.0067913    0.0017601     1.0000000    0.0000000     1.0000000    0.0000000 
   0.238000000     1.0000000    0.0000000     0.0046840   -0.0077612     1.0000000    0.0000000     1.0000000    0.0000000 
   0.240000000     1.0000000    0.0000000    -0.0092270   -0.0040326     1.0000000    0.0000000     1.0000000    0.0000000 
   0.242000000     1.0000000    0.0000000    -0.0031303    0.0063952     1.0000000    0.0000000     1.0000000    0.0000000 
   0.244000000     1.0000000    0.0000000     0.0059538    0.0091470     1.0000000    0.0000000     1.0000000    0.0000000 
   0.246000000     1.0000000    0.0000000     0.0084222   -0.0024732     1.0000000    0.0000000     1.0000000    0.0000000 
   0.248000000     1.0000000    0.0000000    -0.0055910   -0.0081808     1.0000000    0.0000000     1.0000000    0.0000000 
   0.250000000     1.0000000    0.0000000    -0.0064903    0.0026020     1.0000000    0.0000000     1.0000000    0.0000000 
   0.252000000     1.0000000    0.0000000    -0.0001444    0.0147568     1.0000000    0.0000000     1.0000000    0.0000000 
   0.254000000     1.0000000    0.0000000     0.0088947    0.0035816     1.0000000    0.0000000     1.0000000    0.0000000 
   0.256000000     1.0000000    0.0000000     0.0006433   -0.0095071     1.0000000    0.0000000     1.0000000    0.0000000 
   0.258000000     1.0000000    0.0000000    -0.0059855   -0.0025509     1.0000000    0.0000000     1.0000000    0.0000000 
   0.260000000     1.0000000    0.0000000    -0.0050593    0.0053726     1.0000000    0.0000000     1.0000000    0.0000000 
   0.262000000     1.0000000    0.0000000     0.0056661    0.0090212     1.0000000    0.0000000     1.0000000    0.0000000 
   0.264000000     1.0000000    0.0000000     0.0056657   -0.0070498     1.0000000    0.0000000     1.0000000    0.0000000 
   0.266000000     1.0000000    0.0000000    -0.0034538   -0.0054988     1.0000000    0.0000000     1.0000000    0.0000000 
   0.268000000     1.0000000    0.0000000    -0.0075092   -0.0000071     1.0000000    0.0000000     1.0000000    0.0000000 
   0.270000000     1.0000000    0.0000000     0.0002763    0.0118143     1.0000000    0.0000000     1.0000000    0.0000000 
   0.272000000     1.0000000    0.0000000     0.0081867   -0.0024949     1.0000000    0.0000000     1.0000000    0.0000000 
   0.274000000     1.0000000    0.0000000     0.0006899   -0.0063164     1.0000000    0.0000000     1.0000000    0.0000000 
   0.276000000     1.0000000    0.0000000    -0.0062161   -0.0045808     1.0000000    0.0000000     1.0000000    0.0000000 
   0.278000000     1.0000000    0.0000000    -0.0066758    0.0094535     1.0000000    0.0000000     1.0000000    0.0000000 
   0.280000000     1.0000000    0.0000000     0.0077741    0.0029531     1.0000000    0.0000000     1.0000000    0.0000000 
   0.282000000     1.0000000    0.0000000     0.0044444   -0.0046215     1.0000000    0.0000000     1.0000000    0.0000000 
   0.284000000     1.0000000    0.0000000    -0.0024856   -0.0075470     1.0000000    0.0000000     1.0000000    0.0000000 
   0.286000000     1.0000000    0.0000000    -0.0090596    0.0046932     1.0000000    0.0000000     1.0000000    0.0000000 
   0.288000000     1.0000000    0.0000000     0.0028944    0.0062394     1.0000000    0.0000000     1.0000000    0.0000000 
   0.290000000     1.0000000    0.0000000     0.0059552    0.0007772     1.0000000    0.0000000     1.0000000    0.0000000 
   0.292000000     1.0000000    0.0000000     0.0036163   -0.0072664     1.0000000    0.0000000     1.0000000    0.0000000 
   0.294000000     1.0000000    0.0000000    -0.0097738   -0.0020085     1.0000000    0.0000000     1.0000000    0.0000000 
   0.296000000     1.0000000    0.0000000    -0.0020054    0.0062351     1.0000000    0.0000000     1.0000000    0.0000000 
   0.298000000     1.0000000    0.0000000     0.0038548    0.0041211     1.0000000    0.0000000     1.0000000    0.0000000 
   0.300000000     1.0000000    0.0000000     0.0081019   -0.0030740     1.0000000    0.0000000     1.0000000    0.0000000 
   0.302000000     1.0000000    0.0000000    -0.0060989   -0.0074770     1.0000000    0.0000000     1.0000000    0.0000000 
   0.304000000     1.0000000    0.0000000    -0.0053870    0.0035131     1.0000000    0.0000000     1.0000000    0.0000000 
   0.306000000     1.0000000    0.0000000    -0.0002456    0.0065637     1.0000000    0.0000000     1.0000000    0.0000000 
   0.308000000     1.0000000    0.0000000     0.0099203    0.0024446     1.0000000    0.0000000     1.0000000    0.0000000 
   0.310000000     1.0000000    0.0000000    -0.0013144   -0.0094029     1.0000000    0.0000000     1.0000000    0.0000000 
   0.312000000     1.0000000    0.0000000    -0.0065816   -0.0015468     1.0000000    0.0000000     1.0000000    0.0000000 
