! 8/15/2025 12:02:47 PM
! C:\ANRITSUVNA\INPUT.S2P
! CHANNEL.1
! TR.MEASUREMENT
! RAW.DATA
! RF.CORRECTION.OFF
! AVERAGING.OFF
! IF.BANDWIDTH: 5KHZ
! SWEEPTYPE:  FREQ.SWEEP(Linear)
! Reference Plane Port Info
! PORT:              PORT1              PORT2             
! DISTANCE:          0  m               0  m              
! TIME:              0  s               0  s              
! PHASE.OFFSET:      0  deg.            0  deg.           
! LOSS:              0  dB              0  dB             
! REF.LOSS:          0  dB              0  dB             
! REF.FREQ:          0  Hz              0  Hz             
! Power Info
! POWER:             -20  dBm           -20  dBm          
! EFF.POWER:         -20  dBm           -20  dBm          
! SOURCE.ATTEN:      0  dB              0  dB             
! TEST.ATTEN:        0  dB              0  dB             
# GHZ S RI R 50.0
! FREQ.GHZ         S11RE         S11IM         S21RE         S21IM         S12RE         S12IM         S22RE         S22IM         
!; PortSelection: Port_12
   0.010000000     1.0000000    0.0000000    -0.0006570   -0.0749202     1.0000000    0.0000000     1.0000000    0.0000000 
   0.011000000     1.0000000    0.0000000    -0.0130593   -0.0735197     1.0000000    0.0000000     1.0000000    0.0000000 
   0.012000000     1.0000000    0.0000000    -0.0354255   -0.0620473     1.0000000    0.0000000     1.0000000    0.0000000 
   0.013000000     1.0000000    0.0000000    -0.0448120   -0.0550664     1.0000000    0.0000000     1.0000000    0.0000000 
   0.014000000     1.0000000    0.0000000    -0.0465580   -0.0579749     1.0000000    0.0000000     1.0000000    0.0000000 
   0.015000000     1.0000000    0.0000000    -0.0552306   -0.0493698     1.0000000    0.0000000     1.0000000    0.0000000 
   0.016000000     1.0000000    0.0000000    -0.0625557   -0.0394062     1.0000000    0.0000000     1.0000000    0.0000000 
   0.017000000     1.0000000    0.0000000    -0.0680940   -0.0283741     1.0000000    0.0000000     1.0000000    0.0000000 
   0.018000000     1.0000000    0.0000000    -0.0717321   -0.0169084     1.0000000    0.0000000     1.0000000    0.0000000 
   0.019000000     1.0000000    0.0000000    -0.0733247   -0.0049065     1.0000000    0.0000000     1.0000000    0.0000000 
   0.020000000     1.0000000    0.0000000    -0.0729856    0.0072955     1.0000000    0.0000000     1.0000000    0.0000000 
   0.021000000     1.0000000    0.0000000    -0.0705457    0.0190801     1.0000000    0.0000000     1.0000000    0.0000000 
   0.022000000     1.0000000    0.0000000    -0.0663831    0.0304627     1.0000000    0.0000000     1.0000000    0.0000000 
   0.023000000     1.0000000    0.0000000    -0.0600627    0.0408033     1.0000000    0.0000000     1.0000000    0.0000000 
   0.024000000     1.0000000    0.0000000    -0.0412580    0.0560600     1.0000000    0.0000000     1.0000000    0.0000000 
   0.025000000     1.0000000    0.0000000    -0.0312515    0.0619372     1.0000000    0.0000000     1.0000000    0.0000000 
   0.026000000     1.0000000    0.0000000    -0.0332625    0.0642945     1.0000000    0.0000000     1.0000000    0.0000000 
   0.027000000     1.0000000    0.0000000    -0.0222897    0.0687064     1.0000000    0.0000000     1.0000000    0.0000000 
   0.028000000     1.0000000    0.0000000    -0.0108831    0.0713574     1.0000000    0.0000000     1.0000000    0.0000000 
   0.029000000     1.0000000    0.0000000     0.0011478    0.0719761     1.0000000    0.0000000     1.0000000    0.0000000 
   0.030000000     1.0000000    0.0000000     0.0127986    0.0705415     1.0000000    0.0000000     1.0000000    0.0000000 
   0.031000000     1.0000000    0.0000000     0.0242412    0.0673007     1.0000000    0.0000000     1.0000000    0.0000000 
   0.032000000     1.0000000    0.0000000     0.0349597    0.0622553     1.0000000    0.0000000     1.0000000    0.0000000 
   0.033000000     1.0000000    0.0000000     0.0447877    0.0558077     1.0000000    0.0000000     1.0000000    0.0000000 
   0.034000000     1.0000000    0.0000000     0.0530131    0.0476275     1.0000000    0.0000000     1.0000000    0.0000000 
   0.035000000     1.0000000    0.0000000     0.0601695    0.0381507     1.0000000    0.0000000     1.0000000    0.0000000 
   0.036000000     1.0000000    0.0000000     0.0652553    0.0276124     1.0000000    0.0000000     1.0000000    0.0000000 
   0.037000000     1.0000000    0.0000000     0.0687211    0.0165592     1.0000000    0.0000000     1.0000000    0.0000000 
   0.038000000     1.0000000    0.0000000     0.0704381    0.0050438     1.0000000    0.0000000     1.0000000    0.0000000 
   0.039000000     1.0000000    0.0000000     0.0703373   -0.0066553     1.0000000    0.0000000     1.0000000    0.0000000 
   0.040000000     1.0000000    0.0000000     0.0681078   -0.0181807     1.0000000    0.0000000     1.0000000    0.0000000 
   0.041000000     1.0000000    0.0000000     0.0640673   -0.0290110     1.0000000    0.0000000     1.0000000    0.0000000 
   0.042000000     1.0000000    0.0000000     0.0583681   -0.0389888     1.0000000    0.0000000     1.0000000    0.0000000 
   0.043000000     1.0000000    0.0000000     0.0510651   -0.0478519     1.0000000    0.0000000     1.0000000    0.0000000 
   0.044000000     1.0000000    0.0000000     0.0423430   -0.0554925     1.0000000    0.0000000     1.0000000    0.0000000 
   0.045000000     1.0000000    0.0000000     0.0327182   -0.0617191     1.0000000    0.0000000     1.0000000    0.0000000 
   0.046000000     1.0000000    0.0000000     0.0220442   -0.0660105     1.0000000    0.0000000     1.0000000    0.0000000 
   0.047000000     1.0000000    0.0000000     0.0109495   -0.0684488     1.0000000    0.0000000     1.0000000    0.0000000 
   0.048000000     1.0000000    0.0000000    -0.0004327   -0.0692061     1.0000000    0.0000000     1.0000000    0.0000000 
   0.049000000     1.0000000    0.0000000    -0.0117741   -0.0680951     1.0000000    0.0000000     1.0000000    0.0000000 
   0.050000000     1.0000000    0.0000000    -0.0227787   -0.0651338     1.0000000    0.0000000     1.0000000    0.0000000 
   0.051000000     1.0000000    0.0000000    -0.0330223   -0.0602785     1.0000000    0.0000000     1.0000000    0.0000000 
   0.052000000     1.0000000    0.0000000    -0.0424387   -0.0541503     1.0000000    0.0000000     1.0000000    0.0000000 
   0.053000000     1.0000000    0.0000000    -0.0503708   -0.0461140     1.0000000    0.0000000     1.0000000    0.0000000 
   0.054000000     1.0000000    0.0000000    -0.0572266   -0.0371452     1.0000000    0.0000000     1.0000000    0.0000000 
   0.055000000     1.0000000    0.0000000    -0.0623988   -0.0273862     1.0000000    0.0000000     1.0000000    0.0000000 
   0.056000000     1.0000000    0.0000000    -0.0660125   -0.0166839     1.0000000    0.0000000     1.0000000    0.0000000 
   0.057000000     1.0000000    0.0000000    -0.0676366   -0.0054594     1.0000000    0.0000000     1.0000000    0.0000000 
   0.058000000     1.0000000    0.0000000    -0.0673419    0.0057380     1.0000000    0.0000000     1.0000000    0.0000000 
   0.059000000     1.0000000    0.0000000    -0.0654355    0.0165228     1.0000000    0.0000000     1.0000000    0.0000000 
   0.060000000     1.0000000    0.0000000    -0.0617203    0.0269879     1.0000000    0.0000000     1.0000000    0.0000000 
   0.061000000     1.0000000    0.0000000    -0.0561179    0.0366708     1.0000000    0.0000000     1.0000000    0.0000000 
   0.062000000     1.0000000    0.0000000    -0.0494036    0.0453319     1.0000000    0.0000000     1.0000000    0.0000000 
   0.063000000     1.0000000    0.0000000    -0.0412740    0.0527570     1.0000000    0.0000000     1.0000000    0.0000000 
   0.064000000     1.0000000    0.0000000    -0.0321265    0.0586136     1.0000000    0.0000000     1.0000000    0.0000000 
   0.065000000     1.0000000    0.0000000    -0.0217092    0.0628540     1.0000000    0.0000000     1.0000000    0.0000000 
   0.066000000     1.0000000    0.0000000    -0.0113506    0.0653622     1.0000000    0.0000000     1.0000000    0.0000000 
   0.067000000     1.0000000    0.0000000    -0.0004244    0.0661288     1.0000000    0.0000000     1.0000000    0.0000000 
   0.068000000     1.0000000    0.0000000     0.0105324    0.0651985     1.0000000    0.0000000     1.0000000    0.0000000 
   0.069000000     1.0000000    0.0000000     0.0208404    0.0624159     1.0000000    0.0000000     1.0000000    0.0000000 
   0.070000000     1.0000000    0.0000000     0.0309159    0.0578950     1.0000000    0.0000000     1.0000000    0.0000000 
   0.071000000     1.0000000    0.0000000     0.0396479    0.0518743     1.0000000    0.0000000     1.0000000    0.0000000 
   0.072000000     1.0000000    0.0000000     0.0475671    0.0445598     1.0000000    0.0000000     1.0000000    0.0000000 
   0.073000000     1.0000000    0.0000000     0.0538423    0.0362716     1.0000000    0.0000000     1.0000000    0.0000000 
   0.074000000     1.0000000    0.0000000     0.0588174    0.0266458     1.0000000    0.0000000     1.0000000    0.0000000 
   0.075000000     1.0000000    0.0000000     0.0622626    0.0165508     1.0000000    0.0000000     1.0000000    0.0000000 
   0.076000000     1.0000000    0.0000000     0.0637002    0.0063333     1.0000000    0.0000000     1.0000000    0.0000000 
   0.077000000     1.0000000    0.0000000     0.0637587   -0.0042789     1.0000000    0.0000000     1.0000000    0.0000000 
   0.078000000     1.0000000    0.0000000     0.0621175   -0.0146800     1.0000000    0.0000000     1.0000000    0.0000000 
   0.079000000     1.0000000    0.0000000     0.0585198   -0.0243451     1.0000000    0.0000000     1.0000000    0.0000000 
   0.080000000     1.0000000    0.0000000     0.0533491   -0.0334106     1.0000000    0.0000000     1.0000000    0.0000000 
   0.081000000     1.0000000    0.0000000     0.0471671   -0.0416316     1.0000000    0.0000000     1.0000000    0.0000000 
   0.082000000     1.0000000    0.0000000     0.0399040   -0.0484381     1.0000000    0.0000000     1.0000000    0.0000000 
   0.083000000     1.0000000    0.0000000     0.0312987   -0.0539360     1.0000000    0.0000000     1.0000000    0.0000000 
   0.084000000     1.0000000    0.0000000     0.0220910   -0.0579575     1.0000000    0.0000000     1.0000000    0.0000000 
   0.085000000     1.0000000    0.0000000     0.0123222   -0.0608251     1.0000000    0.0000000     1.0000000    0.0000000 
   0.086000000     1.0000000    0.0000000     0.0024146   -0.0614361     1.0000000    0.0000000     1.0000000    0.0000000 
   0.087000000     1.0000000    0.0000000    -0.0076187   -0.0608607     1.0000000    0.0000000     1.0000000    0.0000000 
   0.088000000     1.0000000    0.0000000    -0.0173222   -0.0587476     1.0000000    0.0000000     1.0000000    0.0000000 
   0.089000000     1.0000000    0.0000000    -0.0263998   -0.0548894     1.0000000    0.0000000     1.0000000    0.0000000 
   0.090000000     1.0000000    0.0000000    -0.0346011   -0.0499397     1.0000000    0.0000000     1.0000000    0.0000000 
   0.091000000     1.0000000    0.0000000    -0.0421060   -0.0433099     1.0000000    0.0000000     1.0000000    0.0000000 
   0.092000000     1.0000000    0.0000000    -0.0485094   -0.0359676     1.0000000    0.0000000     1.0000000    0.0000000 
   0.093000000     1.0000000    0.0000000    -0.0535951   -0.0274706     1.0000000    0.0000000     1.0000000    0.0000000 
   0.094000000     1.0000000    0.0000000    -0.0569906   -0.0186219     1.0000000    0.0000000     1.0000000    0.0000000 
   0.095000000     1.0000000    0.0000000    -0.0591224   -0.0091683     1.0000000    0.0000000     1.0000000    0.0000000 
   0.096000000     1.0000000    0.0000000    -0.0597710    0.0003343     1.0000000    0.0000000     1.0000000    0.0000000 
   0.097000000     1.0000000    0.0000000    -0.0587304    0.0100167     1.0000000    0.0000000     1.0000000    0.0000000 
   0.098000000     1.0000000    0.0000000    -0.0560977    0.0192461     1.0000000    0.0000000     1.0000000    0.0000000 
   0.099000000     1.0000000    0.0000000    -0.0522007    0.0279707     1.0000000    0.0000000     1.0000000    0.0000000 
   0.100000000     1.0000000    0.0000000    -0.0468791    0.0357911     1.0000000    0.0000000     1.0000000    0.0000000 
   0.101000000     1.0000000    0.0000000    -0.0404236    0.0428560     1.0000000    0.0000000     1.0000000    0.0000000 
   0.102000000     1.0000000    0.0000000    -0.0329180    0.0486972     1.0000000    0.0000000     1.0000000    0.0000000 
   0.103000000     1.0000000    0.0000000    -0.0245811    0.0533042     1.0000000    0.0000000     1.0000000    0.0000000 
   0.104000000     1.0000000    0.0000000    -0.0156409    0.0563115     1.0000000    0.0000000     1.0000000    0.0000000 
   0.105000000     1.0000000    0.0000000    -0.0063500    0.0580543     1.0000000    0.0000000     1.0000000    0.0000000 
   0.106000000     1.0000000    0.0000000     0.0030673    0.0581723     1.0000000    0.0000000     1.0000000    0.0000000 
   0.107000000     1.0000000    0.0000000     0.0124559    0.0570574     1.0000000    0.0000000     1.0000000    0.0000000 
   0.108000000     1.0000000    0.0000000     0.0214677    0.0540019     1.0000000    0.0000000     1.0000000    0.0000000 
   0.109000000     1.0000000    0.0000000     0.0295672    0.0497463     1.0000000    0.0000000     1.0000000    0.0000000 
   0.110000000     1.0000000    0.0000000     0.0371695    0.0441653     1.0000000    0.0000000     1.0000000    0.0000000 
   0.111000000     1.0000000    0.0000000     0.0438724    0.0375184     1.0000000    0.0000000     1.0000000    0.0000000 
   0.112000000     1.0000000    0.0000000     0.0491916    0.0297345     1.0000000    0.0000000     1.0000000    0.0000000 
   0.113000000     1.0000000    0.0000000     0.0532242    0.0215207     1.0000000    0.0000000     1.0000000    0.0000000 
   0.114000000     1.0000000    0.0000000     0.0556371    0.0125603     1.0000000    0.0000000     1.0000000    0.0000000 
   0.115000000     1.0000000    0.0000000     0.0569286    0.0033954     1.0000000    0.0000000     1.0000000    0.0000000 
   0.116000000     1.0000000    0.0000000     0.0564329   -0.0056137     1.0000000    0.0000000     1.0000000    0.0000000 
   0.117000000     1.0000000    0.0000000     0.0545441   -0.0146405     1.0000000    0.0000000     1.0000000    0.0000000 
   0.118000000     1.0000000    0.0000000     0.0514279   -0.0231508     1.0000000    0.0000000     1.0000000    0.0000000 
   0.119000000     1.0000000    0.0000000     0.0467975   -0.0309644     1.0000000    0.0000000     1.0000000    0.0000000 
   0.120000000     1.0000000    0.0000000     0.0412647   -0.0380522     1.0000000    0.0000000     1.0000000    0.0000000 
   0.121000000     1.0000000    0.0000000     0.0345081   -0.0439578     1.0000000    0.0000000     1.0000000    0.0000000 
   0.122000000     1.0000000    0.0000000     0.0270753   -0.0487161     1.0000000    0.0000000     1.0000000    0.0000000 
   0.123000000     1.0000000    0.0000000     0.0188204   -0.0523036     1.0000000    0.0000000     1.0000000    0.0000000 
   0.124000000     1.0000000    0.0000000     0.0100558   -0.0545343     1.0000000    0.0000000     1.0000000    0.0000000 
   0.125000000     1.0000000    0.0000000     0.0015604   -0.0553869     1.0000000    0.0000000     1.0000000    0.0000000 
   0.126000000     1.0000000    0.0000000    -0.0075054   -0.0548379     1.0000000    0.0000000     1.0000000    0.0000000 
   0.127000000     1.0000000    0.0000000    -0.0160810   -0.0528471     1.0000000    0.0000000     1.0000000    0.0000000 
   0.128000000     1.0000000    0.0000000    -0.0241709   -0.0494048     1.0000000    0.0000000     1.0000000    0.0000000 
   0.129000000     1.0000000    0.0000000    -0.0318010   -0.0446976     1.0000000    0.0000000     1.0000000    0.0000000 
   0.130000000     1.0000000    0.0000000    -0.0384763   -0.0390384     1.0000000    0.0000000     1.0000000    0.0000000 
   0.131000000     1.0000000    0.0000000    -0.0440473   -0.0326027     1.0000000    0.0000000     1.0000000    0.0000000 
   0.132000000     1.0000000    0.0000000    -0.0486243   -0.0251754     1.0000000    0.0000000     1.0000000    0.0000000 
   0.133000000     1.0000000    0.0000000    -0.0519916   -0.0169842     1.0000000    0.0000000     1.0000000    0.0000000 
   0.134000000     1.0000000    0.0000000    -0.0539184   -0.0082765     1.0000000    0.0000000     1.0000000    0.0000000 
   0.135000000     1.0000000    0.0000000    -0.0546022    0.0004780     1.0000000    0.0000000     1.0000000    0.0000000 
   0.136000000     1.0000000    0.0000000    -0.0539080    0.0091003     1.0000000    0.0000000     1.0000000    0.0000000 
   0.137000000     1.0000000    0.0000000    -0.0516898    0.0175584     1.0000000    0.0000000     1.0000000    0.0000000 
   0.138000000     1.0000000    0.0000000    -0.0480604    0.0254536     1.0000000    0.0000000     1.0000000    0.0000000 
   0.139000000     1.0000000    0.0000000    -0.0434390    0.0328171     1.0000000    0.0000000     1.0000000    0.0000000 
   0.140000000     1.0000000    0.0000000    -0.0374928    0.0391799     1.0000000    0.0000000     1.0000000    0.0000000 
   0.141000000     1.0000000    0.0000000    -0.0308531    0.0445861     1.0000000    0.0000000     1.0000000    0.0000000 
   0.142000000     1.0000000    0.0000000    -0.0231529    0.0490469     1.0000000    0.0000000     1.0000000    0.0000000 
   0.143000000     1.0000000    0.0000000    -0.0149710    0.0521622     1.0000000    0.0000000     1.0000000    0.0000000 
   0.144000000     1.0000000    0.0000000    -0.0063730    0.0537849     1.0000000    0.0000000     1.0000000    0.0000000 
   0.145000000     1.0000000    0.0000000     0.0021864    0.0540361     1.0000000    0.0000000     1.0000000    0.0000000 
   0.146000000     1.0000000    0.0000000     0.0107618    0.0529954     1.0000000    0.0000000     1.0000000    0.0000000 
   0.147000000     1.0000000    0.0000000     0.0191435    0.0507655     1.0000000    0.0000000     1.0000000    0.0000000 
   0.148000000     1.0000000    0.0000000     0.0269601    0.0469658     1.0000000    0.0000000     1.0000000    0.0000000 
   0.149000000     1.0000000    0.0000000     0.0341814    0.0419232     1.0000000    0.0000000     1.0000000    0.0000000 
   0.150000000     1.0000000    0.0000000     0.0404002    0.0360317     1.0000000    0.0000000     1.0000000    0.0000000 
   0.151000000     1.0000000    0.0000000     0.0455921    0.0290190     1.0000000    0.0000000     1.0000000    0.0000000 
   0.152000000     1.0000000    0.0000000     0.0495770    0.0214108     1.0000000    0.0000000     1.0000000    0.0000000 
   0.153000000     1.0000000    0.0000000     0.0522255    0.0132636     1.0000000    0.0000000     1.0000000    0.0000000 
   0.154000000     1.0000000    0.0000000     0.0538284    0.0044829     1.0000000    0.0000000     1.0000000    0.0000000 
   0.155000000     1.0000000    0.0000000     0.0538102   -0.0040769     1.0000000    0.0000000     1.0000000    0.0000000 
   0.156000000     1.0000000    0.0000000     0.0527328   -0.0124487     1.0000000    0.0000000     1.0000000    0.0000000 
   0.157000000     1.0000000    0.0000000     0.0497876   -0.0207801     1.0000000    0.0000000     1.0000000    0.0000000 
   0.158000000     1.0000000    0.0000000     0.0458122   -0.0284987     1.0000000    0.0000000     1.0000000    0.0000000 
   0.159000000     1.0000000    0.0000000     0.0407190   -0.0356458     1.0000000    0.0000000     1.0000000    0.0000000 
   0.160000000     1.0000000    0.0000000     0.0345030   -0.0416012     1.0000000    0.0000000     1.0000000    0.0000000 
   0.161000000     1.0000000    0.0000000     0.0274436   -0.0464915     1.0000000    0.0000000     1.0000000    0.0000000 
