! 8/15/2025 12:06:50 PM
! C:\ANRITSUVNA\OUPUT_MINUS_40.S2P
! CHANNEL.1
! TR.MEASUREMENT
! RAW.DATA
! RF.CORRECTION.OFF
! AVERAGING.OFF
! IF.BANDWIDTH: 5KHZ
! SWEEPTYPE:  FREQ.SWEEP(Linear)
! Reference Plane Port Info
! PORT:              PORT1              PORT2             
! DISTANCE:          0  m               0  m              
! TIME:              0  s               0  s              
! PHASE.OFFSET:      0  deg.            0  deg.           
! LOSS:              0  dB              0  dB             
! REF.LOSS:          0  dB              0  dB             
! REF.FREQ:          0  Hz              0  Hz             
! Power Info
! POWER:             -20  dBm           -20  dBm          
! EFF.POWER:         -20  dBm           -20  dBm          
! SOURCE.ATTEN:      0  dB              0  dB             
! TEST.ATTEN:        0  dB              0  dB             
# GHZ S RI R 50.0
! FREQ.GHZ         S11RE         S11IM         S21RE         S21IM         S12RE         S12IM         S22RE         S22IM         
!; PortSelection: Port_12
   0.010000000     1.0000000    0.0000000     0.0215164    0.0007911     1.0000000    0.0000000     1.0000000    0.0000000 
   0.011000000     1.0000000    0.0000000     0.0215352   -0.0046729     1.0000000    0.0000000     1.0000000    0.0000000 
   0.012000000     1.0000000    0.0000000     0.0177027   -0.0124618     1.0000000    0.0000000     1.0000000    0.0000000 
   0.013000000     1.0000000    0.0000000     0.0150393   -0.0161136     1.0000000    0.0000000     1.0000000    0.0000000 
   0.014000000     1.0000000    0.0000000     0.0159916   -0.0176084     1.0000000    0.0000000     1.0000000    0.0000000 
   0.015000000     1.0000000    0.0000000     0.0127596   -0.0208294     1.0000000    0.0000000     1.0000000    0.0000000 
   0.016000000     1.0000000    0.0000000     0.0091077   -0.0233987     1.0000000    0.0000000     1.0000000    0.0000000 
   0.017000000     1.0000000    0.0000000     0.0052417   -0.0253688     1.0000000    0.0000000     1.0000000    0.0000000 
   0.018000000     1.0000000    0.0000000     0.0008799   -0.0266097     1.0000000    0.0000000     1.0000000    0.0000000 
   0.019000000     1.0000000    0.0000000    -0.0038093   -0.0272700     1.0000000    0.0000000     1.0000000    0.0000000 
   0.020000000     1.0000000    0.0000000    -0.0081124   -0.0274930     1.0000000    0.0000000     1.0000000    0.0000000 
   0.021000000     1.0000000    0.0000000    -0.0129478   -0.0268814     1.0000000    0.0000000     1.0000000    0.0000000 
   0.022000000     1.0000000    0.0000000    -0.0176961   -0.0255259     1.0000000    0.0000000     1.0000000    0.0000000 
   0.023000000     1.0000000    0.0000000    -0.0226046   -0.0233803     1.0000000    0.0000000     1.0000000    0.0000000 
   0.024000000     1.0000000    0.0000000    -0.0290969   -0.0149889     1.0000000    0.0000000     1.0000000    0.0000000 
   0.025000000     1.0000000    0.0000000    -0.0326851   -0.0106682     1.0000000    0.0000000     1.0000000    0.0000000 
   0.026000000     1.0000000    0.0000000    -0.0358956   -0.0121654     1.0000000    0.0000000     1.0000000    0.0000000 
   0.027000000     1.0000000    0.0000000    -0.0394829   -0.0067747     1.0000000    0.0000000     1.0000000    0.0000000 
   0.028000000     1.0000000    0.0000000    -0.0425582    0.0000378     1.0000000    0.0000000     1.0000000    0.0000000 
   0.029000000     1.0000000    0.0000000    -0.0445933    0.0072626     1.0000000    0.0000000     1.0000000    0.0000000 
   0.030000000     1.0000000    0.0000000    -0.0453893    0.0156114     1.0000000    0.0000000     1.0000000    0.0000000 
   0.031000000     1.0000000    0.0000000    -0.0447145    0.0249754     1.0000000    0.0000000     1.0000000    0.0000000 
   0.032000000     1.0000000    0.0000000    -0.0422546    0.0346758     1.0000000    0.0000000     1.0000000    0.0000000 
   0.033000000     1.0000000    0.0000000    -0.0376217    0.0445381     1.0000000    0.0000000     1.0000000    0.0000000 
   0.034000000     1.0000000    0.0000000    -0.0306500    0.0540684     1.0000000    0.0000000     1.0000000    0.0000000 
   0.035000000     1.0000000    0.0000000    -0.0210324    0.0627562     1.0000000    0.0000000     1.0000000    0.0000000 
   0.036000000     1.0000000    0.0000000    -0.0087523    0.0697577     1.0000000    0.0000000     1.0000000    0.0000000 
   0.037000000     1.0000000    0.0000000     0.0059183    0.0741021     1.0000000    0.0000000     1.0000000    0.0000000 
   0.038000000     1.0000000    0.0000000     0.0222799    0.0752286     1.0000000    0.0000000     1.0000000    0.0000000 
   0.039000000     1.0000000    0.0000000     0.0393507    0.0721888     1.0000000    0.0000000     1.0000000    0.0000000 
   0.040000000     1.0000000    0.0000000     0.0561267    0.0649137     1.0000000    0.0000000     1.0000000    0.0000000 
   0.041000000     1.0000000    0.0000000     0.0713205    0.0530750     1.0000000    0.0000000     1.0000000    0.0000000 
   0.042000000     1.0000000    0.0000000     0.0834514    0.0376500     1.0000000    0.0000000     1.0000000    0.0000000 
   0.043000000     1.0000000    0.0000000     0.0918717    0.0194059     1.0000000    0.0000000     1.0000000    0.0000000 
   0.044000000     1.0000000    0.0000000     0.0956765   -0.0002984     1.0000000    0.0000000     1.0000000    0.0000000 
   0.045000000     1.0000000    0.0000000     0.0949948   -0.0205252     1.0000000    0.0000000     1.0000000    0.0000000 
   0.046000000     1.0000000    0.0000000     0.0896819   -0.0399550     1.0000000    0.0000000     1.0000000    0.0000000 
   0.047000000     1.0000000    0.0000000     0.0805450   -0.0574141     1.0000000    0.0000000     1.0000000    0.0000000 
   0.048000000     1.0000000    0.0000000     0.0679888   -0.0728255     1.0000000    0.0000000     1.0000000    0.0000000 
   0.049000000     1.0000000    0.0000000     0.0530141   -0.0849252     1.0000000    0.0000000     1.0000000    0.0000000 
   0.050000000     1.0000000    0.0000000     0.0360309   -0.0938292     1.0000000    0.0000000     1.0000000    0.0000000 
   0.051000000     1.0000000    0.0000000     0.0179135   -0.0993240     1.0000000    0.0000000     1.0000000    0.0000000 
   0.052000000     1.0000000    0.0000000    -0.0005553   -0.1015304     1.0000000    0.0000000     1.0000000    0.0000000 
   0.053000000     1.0000000    0.0000000    -0.0191195   -0.1001162     1.0000000    0.0000000     1.0000000    0.0000000 
   0.054000000     1.0000000    0.0000000    -0.0368598   -0.0956441     1.0000000    0.0000000     1.0000000    0.0000000 
   0.055000000     1.0000000    0.0000000    -0.0537005   -0.0885648     1.0000000    0.0000000     1.0000000    0.0000000 
   0.056000000     1.0000000    0.0000000    -0.0691946   -0.0785559     1.0000000    0.0000000     1.0000000    0.0000000 
   0.057000000     1.0000000    0.0000000    -0.0827840   -0.0657167     1.0000000    0.0000000     1.0000000    0.0000000 
   0.058000000     1.0000000    0.0000000    -0.0943547   -0.0512662     1.0000000    0.0000000     1.0000000    0.0000000 
   0.059000000     1.0000000    0.0000000    -0.1032391   -0.0346807     1.0000000    0.0000000     1.0000000    0.0000000 
   0.060000000     1.0000000    0.0000000    -0.1095355   -0.0163160     1.0000000    0.0000000     1.0000000    0.0000000 
   0.061000000     1.0000000    0.0000000    -0.1129499    0.0027904     1.0000000    0.0000000     1.0000000    0.0000000 
   0.062000000     1.0000000    0.0000000    -0.1130859    0.0225979     1.0000000    0.0000000     1.0000000    0.0000000 
   0.063000000     1.0000000    0.0000000    -0.1095866    0.0428488     1.0000000    0.0000000     1.0000000    0.0000000 
   0.064000000     1.0000000    0.0000000    -0.1030835    0.0629626     1.0000000    0.0000000     1.0000000    0.0000000 
   0.065000000     1.0000000    0.0000000    -0.0927591    0.0824435     1.0000000    0.0000000     1.0000000    0.0000000 
   0.066000000     1.0000000    0.0000000    -0.0787459    0.1003376     1.0000000    0.0000000     1.0000000    0.0000000 
   0.067000000     1.0000000    0.0000000    -0.0611002    0.1159897     1.0000000    0.0000000     1.0000000    0.0000000 
   0.068000000     1.0000000    0.0000000    -0.0401236    0.1291307     1.0000000    0.0000000     1.0000000    0.0000000 
   0.069000000     1.0000000    0.0000000    -0.0162806    0.1386048     1.0000000    0.0000000     1.0000000    0.0000000 
   0.070000000     1.0000000    0.0000000     0.0100947    0.1435595     1.0000000    0.0000000     1.0000000    0.0000000 
   0.071000000     1.0000000    0.0000000     0.0382944    0.1435834     1.0000000    0.0000000     1.0000000    0.0000000 
   0.072000000     1.0000000    0.0000000     0.0667288    0.1377417     1.0000000    0.0000000     1.0000000    0.0000000 
   0.073000000     1.0000000    0.0000000     0.0950864    0.1257439     1.0000000    0.0000000     1.0000000    0.0000000 
   0.074000000     1.0000000    0.0000000     0.1210119    0.1079719     1.0000000    0.0000000     1.0000000    0.0000000 
   0.075000000     1.0000000    0.0000000     0.1435092    0.0843351     1.0000000    0.0000000     1.0000000    0.0000000 
   0.076000000     1.0000000    0.0000000     0.1615439    0.0550570     1.0000000    0.0000000     1.0000000    0.0000000 
   0.077000000     1.0000000    0.0000000     0.1728630    0.0226140     1.0000000    0.0000000     1.0000000    0.0000000 
   0.078000000     1.0000000    0.0000000     0.1774822   -0.0128597     1.0000000    0.0000000     1.0000000    0.0000000 
   0.079000000     1.0000000    0.0000000     0.1737649   -0.0491826     1.0000000    0.0000000     1.0000000    0.0000000 
   0.080000000     1.0000000    0.0000000     0.1630173   -0.0840209     1.0000000    0.0000000     1.0000000    0.0000000 
   0.081000000     1.0000000    0.0000000     0.1445116   -0.1163682     1.0000000    0.0000000     1.0000000    0.0000000 
   0.082000000     1.0000000    0.0000000     0.1196199   -0.1439532     1.0000000    0.0000000     1.0000000    0.0000000 
   0.083000000     1.0000000    0.0000000     0.0896747   -0.1656712     1.0000000    0.0000000     1.0000000    0.0000000 
   0.084000000     1.0000000    0.0000000     0.0554815   -0.1815766     1.0000000    0.0000000     1.0000000    0.0000000 
   0.085000000     1.0000000    0.0000000     0.0191433   -0.1897303     1.0000000    0.0000000     1.0000000    0.0000000 
   0.086000000     1.0000000    0.0000000    -0.0176648   -0.1904000     1.0000000    0.0000000     1.0000000    0.0000000 
   0.087000000     1.0000000    0.0000000    -0.0545804   -0.1842298     1.0000000    0.0000000     1.0000000    0.0000000 
   0.088000000     1.0000000    0.0000000    -0.0888972   -0.1715964     1.0000000    0.0000000     1.0000000    0.0000000 
   0.089000000     1.0000000    0.0000000    -0.1200459   -0.1525492     1.0000000    0.0000000     1.0000000    0.0000000 
   0.090000000     1.0000000    0.0000000    -0.1472387   -0.1278003     1.0000000    0.0000000     1.0000000    0.0000000 
   0.091000000     1.0000000    0.0000000    -0.1694715   -0.0978965     1.0000000    0.0000000     1.0000000    0.0000000 
   0.092000000     1.0000000    0.0000000    -0.1854108   -0.0648733     1.0000000    0.0000000     1.0000000    0.0000000 
   0.093000000     1.0000000    0.0000000    -0.1951933   -0.0293516     1.0000000    0.0000000     1.0000000    0.0000000 
   0.094000000     1.0000000    0.0000000    -0.1988889    0.0073636     1.0000000    0.0000000     1.0000000    0.0000000 
   0.095000000     1.0000000    0.0000000    -0.1954646    0.0446795     1.0000000    0.0000000     1.0000000    0.0000000 
   0.096000000     1.0000000    0.0000000    -0.1848277    0.0812155     1.0000000    0.0000000     1.0000000    0.0000000 
   0.097000000     1.0000000    0.0000000    -0.1681450    0.1150183     1.0000000    0.0000000     1.0000000    0.0000000 
   0.098000000     1.0000000    0.0000000    -0.1451318    0.1455478     1.0000000    0.0000000     1.0000000    0.0000000 
   0.099000000     1.0000000    0.0000000    -0.1162349    0.1714373     1.0000000    0.0000000     1.0000000    0.0000000 
   0.100000000     1.0000000    0.0000000    -0.0832802    0.1919636     1.0000000    0.0000000     1.0000000    0.0000000 
   0.101000000     1.0000000    0.0000000    -0.0467094    0.2061449     1.0000000    0.0000000     1.0000000    0.0000000 
   0.102000000     1.0000000    0.0000000    -0.0074124    0.2133500     1.0000000    0.0000000     1.0000000    0.0000000 
   0.103000000     1.0000000    0.0000000     0.0329825    0.2131017     1.0000000    0.0000000     1.0000000    0.0000000 
   0.104000000     1.0000000    0.0000000     0.0728380    0.2049945     1.0000000    0.0000000     1.0000000    0.0000000 
   0.105000000     1.0000000    0.0000000     0.1112224    0.1898804     1.0000000    0.0000000     1.0000000    0.0000000 
   0.106000000     1.0000000    0.0000000     0.1464252    0.1668867     1.0000000    0.0000000     1.0000000    0.0000000 
   0.107000000     1.0000000    0.0000000     0.1772387    0.1378299     1.0000000    0.0000000     1.0000000    0.0000000 
   0.108000000     1.0000000    0.0000000     0.2017854    0.1029842     1.0000000    0.0000000     1.0000000    0.0000000 
   0.109000000     1.0000000    0.0000000     0.2194904    0.0637161     1.0000000    0.0000000     1.0000000    0.0000000 
   0.110000000     1.0000000    0.0000000     0.2299852    0.0208155     1.0000000    0.0000000     1.0000000    0.0000000 
   0.111000000     1.0000000    0.0000000     0.2314845   -0.0233426     1.0000000    0.0000000     1.0000000    0.0000000 
   0.112000000     1.0000000    0.0000000     0.2245187   -0.0672766     1.0000000    0.0000000     1.0000000    0.0000000 
   0.113000000     1.0000000    0.0000000     0.2087253   -0.1097726     1.0000000    0.0000000     1.0000000    0.0000000 
   0.114000000     1.0000000    0.0000000     0.1852420   -0.1484228     1.0000000    0.0000000     1.0000000    0.0000000 
   0.115000000     1.0000000    0.0000000     0.1542079   -0.1819370     1.0000000    0.0000000     1.0000000    0.0000000 
   0.116000000     1.0000000    0.0000000     0.1172194   -0.2088634     1.0000000    0.0000000     1.0000000    0.0000000 
   0.117000000     1.0000000    0.0000000     0.0755348   -0.2283640     1.0000000    0.0000000     1.0000000    0.0000000 
   0.118000000     1.0000000    0.0000000     0.0309308   -0.2390818     1.0000000    0.0000000     1.0000000    0.0000000 
   0.119000000     1.0000000    0.0000000    -0.0150705   -0.2411434     1.0000000    0.0000000     1.0000000    0.0000000 
   0.120000000     1.0000000    0.0000000    -0.0608542   -0.2339468     1.0000000    0.0000000     1.0000000    0.0000000 
   0.121000000     1.0000000    0.0000000    -0.1038657   -0.2181187     1.0000000    0.0000000     1.0000000    0.0000000 
   0.122000000     1.0000000    0.0000000    -0.1429438   -0.1942168     1.0000000    0.0000000     1.0000000    0.0000000 
   0.123000000     1.0000000    0.0000000    -0.1762083   -0.1628112     1.0000000    0.0000000     1.0000000    0.0000000 
   0.124000000     1.0000000    0.0000000    -0.2028978   -0.1261443     1.0000000    0.0000000     1.0000000    0.0000000 
   0.125000000     1.0000000    0.0000000    -0.2221711   -0.0852238     1.0000000    0.0000000     1.0000000    0.0000000 
   0.126000000     1.0000000    0.0000000    -0.2333024   -0.0419881     1.0000000    0.0000000     1.0000000    0.0000000 
   0.127000000     1.0000000    0.0000000    -0.2365018    0.0026365     1.0000000    0.0000000     1.0000000    0.0000000 
   0.128000000     1.0000000    0.0000000    -0.2317971    0.0470144     1.0000000    0.0000000     1.0000000    0.0000000 
   0.129000000     1.0000000    0.0000000    -0.2192864    0.0896624     1.0000000    0.0000000     1.0000000    0.0000000 
   0.130000000     1.0000000    0.0000000    -0.1993648    0.1295196     1.0000000    0.0000000     1.0000000    0.0000000 
   0.131000000     1.0000000    0.0000000    -0.1723566    0.1651870     1.0000000    0.0000000     1.0000000    0.0000000 
   0.132000000     1.0000000    0.0000000    -0.1394640    0.1957968     1.0000000    0.0000000     1.0000000    0.0000000 
   0.133000000     1.0000000    0.0000000    -0.1012724    0.2200083     1.0000000    0.0000000     1.0000000    0.0000000 
   0.134000000     1.0000000    0.0000000    -0.0589013    0.2367937     1.0000000    0.0000000     1.0000000    0.0000000 
   0.135000000     1.0000000    0.0000000    -0.0132783    0.2457472     1.0000000    0.0000000     1.0000000    0.0000000 
   0.136000000     1.0000000    0.0000000     0.0327680    0.2456438     1.0000000    0.0000000     1.0000000    0.0000000 
   0.137000000     1.0000000    0.0000000     0.0786049    0.2364996     1.0000000    0.0000000     1.0000000    0.0000000 
   0.138000000     1.0000000    0.0000000     0.1220026    0.2189831     1.0000000    0.0000000     1.0000000    0.0000000 
   0.139000000     1.0000000    0.0000000     0.1612108    0.1931068     1.0000000    0.0000000     1.0000000    0.0000000 
   0.140000000     1.0000000    0.0000000     0.1949190    0.1600034     1.0000000    0.0000000     1.0000000    0.0000000 
   0.141000000     1.0000000    0.0000000     0.2218101    0.1213323     1.0000000    0.0000000     1.0000000    0.0000000 
   0.142000000     1.0000000    0.0000000     0.2409385    0.0782060     1.0000000    0.0000000     1.0000000    0.0000000 
   0.143000000     1.0000000    0.0000000     0.2518377    0.0321798     1.0000000    0.0000000     1.0000000    0.0000000 
   0.144000000     1.0000000    0.0000000     0.2533247   -0.0151838     1.0000000    0.0000000     1.0000000    0.0000000 
   0.145000000     1.0000000    0.0000000     0.2460417   -0.0618527     1.0000000    0.0000000     1.0000000    0.0000000 
   0.146000000     1.0000000    0.0000000     0.2304673   -0.1060965     1.0000000    0.0000000     1.0000000    0.0000000 
   0.147000000     1.0000000    0.0000000     0.2066500   -0.1466376     1.0000000    0.0000000     1.0000000    0.0000000 
   0.148000000     1.0000000    0.0000000     0.1755654   -0.1821851     1.0000000    0.0000000     1.0000000    0.0000000 
   0.149000000     1.0000000    0.0000000     0.1385141   -0.2111492     1.0000000    0.0000000     1.0000000    0.0000000 
   0.150000000     1.0000000    0.0000000     0.0973381   -0.2326262     1.0000000    0.0000000     1.0000000    0.0000000 
   0.151000000     1.0000000    0.0000000     0.0526674   -0.2452756     1.0000000    0.0000000     1.0000000    0.0000000 
   0.152000000     1.0000000    0.0000000     0.0069938   -0.2501898     1.0000000    0.0000000     1.0000000    0.0000000 
   0.153000000     1.0000000    0.0000000    -0.0391188   -0.2459754     1.0000000    0.0000000     1.0000000    0.0000000 
   0.154000000     1.0000000    0.0000000    -0.0832335   -0.2339660     1.0000000    0.0000000     1.0000000    0.0000000 
   0.155000000     1.0000000    0.0000000    -0.1239880   -0.2143254     1.0000000    0.0000000     1.0000000    0.0000000 
   0.156000000     1.0000000    0.0000000    -0.1605336   -0.1879782     1.0000000    0.0000000     1.0000000    0.0000000 
   0.157000000     1.0000000    0.0000000    -0.1917464   -0.1554590     1.0000000    0.0000000     1.0000000    0.0000000 
   0.158000000     1.0000000    0.0000000    -0.2170823   -0.1184900     1.0000000    0.0000000     1.0000000    0.0000000 
   0.159000000     1.0000000    0.0000000    -0.2355693   -0.0769638     1.0000000    0.0000000     1.0000000    0.0000000 
   0.160000000     1.0000000    0.0000000    -0.2465912   -0.0336145     1.0000000    0.0000000     1.0000000    0.0000000 
   0.161000000     1.0000000    0.0000000    -0.2501265    0.0120848     1.0000000    0.0000000     1.0000000    0.0000000 
