! 8/15/2025 2:06:53 PM
! C:\ANRITSUVNA\REFERENCE.S2P
! CHANNEL.1
! TR.MEASUREMENT
! RAW.DATA
! RF.CORRECTION.OFF
! AVERAGING.OFF
! IF.BANDWIDTH: 5KHZ
! SWEEPTYPE:  FREQ.SWEEP(Linear)
! Reference Plane Port Info
! PORT:              PORT1              PORT2             
! DISTANCE:          0  m               0  m              
! TIME:              0  s               0  s              
! PHASE.OFFSET:      0  deg.            0  deg.           
! LOSS:              0  dB              0  dB             
! REF.LOSS:          0  dB              0  dB             
! REF.FREQ:          0  Hz              0  Hz             
! Power Info
! POWER:             0  dBm             -20  dBm          
! EFF.POWER:         0  dBm             -20  dBm          
! SOURCE.ATTEN:      0  dB              0  dB             
! TEST.ATTEN:        0  dB              0  dB             
# GHZ S RI R 50.0
! FREQ.GHZ         S11RE         S11IM         S21RE         S21IM         S12RE         S12IM         S22RE         S22IM         
!; PortSelection: Port_12
   0.010000000     1.0000000    0.0000000     0.2539446   -0.6790861     1.0000000    0.0000000     1.0000000    0.0000000 
   0.011000000     1.0000000    0.0000000     0.1629143   -0.7047130     1.0000000    0.0000000     1.0000000    0.0000000 
   0.012000000     1.0000000    0.0000000    -0.0547436   -0.6858009     1.0000000    0.0000000     1.0000000    0.0000000 
   0.013000000     1.0000000    0.0000000    -0.1423328   -0.6712854     1.0000000    0.0000000     1.0000000    0.0000000 
   0.014000000     1.0000000    0.0000000    -0.1159058   -0.7085873     1.0000000    0.0000000     1.0000000    0.0000000 
   0.015000000     1.0000000    0.0000000    -0.2057450   -0.6864946     1.0000000    0.0000000     1.0000000    0.0000000 
   0.016000000     1.0000000    0.0000000    -0.2917402   -0.6527767     1.0000000    0.0000000     1.0000000    0.0000000 
   0.017000000     1.0000000    0.0000000    -0.3721761   -0.6090524     1.0000000    0.0000000     1.0000000    0.0000000 
   0.018000000     1.0000000    0.0000000    -0.4463996   -0.5554049     1.0000000    0.0000000     1.0000000    0.0000000 
   0.019000000     1.0000000    0.0000000    -0.5131611   -0.4927948     1.0000000    0.0000000     1.0000000    0.0000000 
   0.020000000     1.0000000    0.0000000    -0.5714965   -0.4223648     1.0000000    0.0000000     1.0000000    0.0000000 
   0.021000000     1.0000000    0.0000000    -0.6206502   -0.3453082     1.0000000    0.0000000     1.0000000    0.0000000 
   0.022000000     1.0000000    0.0000000    -0.6596185   -0.2624203     1.0000000    0.0000000     1.0000000    0.0000000 
   0.023000000     1.0000000    0.0000000    -0.6877264   -0.1748941     1.0000000    0.0000000     1.0000000    0.0000000 
   0.024000000     1.0000000    0.0000000    -0.6751298    0.0384999     1.0000000    0.0000000     1.0000000    0.0000000 
   0.025000000     1.0000000    0.0000000    -0.6642910    0.1251409     1.0000000    0.0000000     1.0000000    0.0000000 
   0.026000000     1.0000000    0.0000000    -0.7023736    0.0993034     1.0000000    0.0000000     1.0000000    0.0000000 
   0.027000000     1.0000000    0.0000000    -0.6829813    0.1897655     1.0000000    0.0000000     1.0000000    0.0000000 
   0.028000000     1.0000000    0.0000000    -0.6522562    0.2767864     1.0000000    0.0000000     1.0000000    0.0000000 
   0.029000000     1.0000000    0.0000000    -0.6102536    0.3591949     1.0000000    0.0000000     1.0000000    0.0000000 
   0.030000000     1.0000000    0.0000000    -0.5574310    0.4351034     1.0000000    0.0000000     1.0000000    0.0000000 
   0.031000000     1.0000000    0.0000000    -0.4952001    0.5036256     1.0000000    0.0000000     1.0000000    0.0000000 
   0.032000000     1.0000000    0.0000000    -0.4239885    0.5627292     1.0000000    0.0000000     1.0000000    0.0000000 
   0.033000000     1.0000000    0.0000000    -0.3461171    0.6118869     1.0000000    0.0000000     1.0000000    0.0000000 
   0.034000000     1.0000000    0.0000000    -0.2627948    0.6502082     1.0000000    0.0000000     1.0000000    0.0000000 
   0.035000000     1.0000000    0.0000000    -0.1751467    0.6764452     1.0000000    0.0000000     1.0000000    0.0000000 
   0.036000000     1.0000000    0.0000000    -0.0854186    0.6911973     1.0000000    0.0000000     1.0000000    0.0000000 
   0.037000000     1.0000000    0.0000000     0.0047289    0.6937449     1.0000000    0.0000000     1.0000000    0.0000000 
   0.038000000     1.0000000    0.0000000     0.0938062    0.6845372     1.0000000    0.0000000     1.0000000    0.0000000 
   0.039000000     1.0000000    0.0000000     0.1802553    0.6638833     1.0000000    0.0000000     1.0000000    0.0000000 
   0.040000000     1.0000000    0.0000000     0.2628709    0.6327659     1.0000000    0.0000000     1.0000000    0.0000000 
   0.041000000     1.0000000    0.0000000     0.3399529    0.5914329     1.0000000    0.0000000     1.0000000    0.0000000 
   0.042000000     1.0000000    0.0000000     0.4109058    0.5412863     1.0000000    0.0000000     1.0000000    0.0000000 
   0.043000000     1.0000000    0.0000000     0.4744743    0.4831693     1.0000000    0.0000000     1.0000000    0.0000000 
   0.044000000     1.0000000    0.0000000     0.5301480    0.4178218     1.0000000    0.0000000     1.0000000    0.0000000 
   0.045000000     1.0000000    0.0000000     0.5772520    0.3467026     1.0000000    0.0000000     1.0000000    0.0000000 
   0.046000000     1.0000000    0.0000000     0.6148272    0.2704562     1.0000000    0.0000000     1.0000000    0.0000000 
   0.047000000     1.0000000    0.0000000     0.6426898    0.1904454     1.0000000    0.0000000     1.0000000    0.0000000 
   0.048000000     1.0000000    0.0000000     0.6604367    0.1076692     1.0000000    0.0000000     1.0000000    0.0000000 
   0.049000000     1.0000000    0.0000000     0.6682630    0.0234698     1.0000000    0.0000000     1.0000000    0.0000000 
   0.050000000     1.0000000    0.0000000     0.6654813   -0.0611453     1.0000000    0.0000000     1.0000000    0.0000000 
   0.051000000     1.0000000    0.0000000     0.6518596   -0.1446701     1.0000000    0.0000000     1.0000000    0.0000000 
   0.052000000     1.0000000    0.0000000     0.6279038   -0.2260931     1.0000000    0.0000000     1.0000000    0.0000000 
   0.053000000     1.0000000    0.0000000     0.5940092   -0.3040757     1.0000000    0.0000000     1.0000000    0.0000000 
   0.054000000     1.0000000    0.0000000     0.5503463   -0.3773831     1.0000000    0.0000000     1.0000000    0.0000000 
   0.055000000     1.0000000    0.0000000     0.4976045   -0.4452289     1.0000000    0.0000000     1.0000000    0.0000000 
   0.056000000     1.0000000    0.0000000     0.4359258   -0.5055386     1.0000000    0.0000000     1.0000000    0.0000000 
   0.057000000     1.0000000    0.0000000     0.3670175   -0.5575328     1.0000000    0.0000000     1.0000000    0.0000000 
   0.058000000     1.0000000    0.0000000     0.2914201   -0.6003235     1.0000000    0.0000000     1.0000000    0.0000000 
   0.059000000     1.0000000    0.0000000     0.2109311   -0.6329379     1.0000000    0.0000000     1.0000000    0.0000000 
   0.060000000     1.0000000    0.0000000     0.1265548   -0.6547099     1.0000000    0.0000000     1.0000000    0.0000000 
   0.061000000     1.0000000    0.0000000     0.0401532   -0.6644830     1.0000000    0.0000000     1.0000000    0.0000000 
   0.062000000     1.0000000    0.0000000    -0.0470771   -0.6634818     1.0000000    0.0000000     1.0000000    0.0000000 
   0.063000000     1.0000000    0.0000000    -0.1329822   -0.6502013     1.0000000    0.0000000     1.0000000    0.0000000 
   0.064000000     1.0000000    0.0000000    -0.2161892   -0.6260049     1.0000000    0.0000000     1.0000000    0.0000000 
   0.065000000     1.0000000    0.0000000    -0.2952284   -0.5907009     1.0000000    0.0000000     1.0000000    0.0000000 
   0.066000000     1.0000000    0.0000000    -0.3684964   -0.5451741     1.0000000    0.0000000     1.0000000    0.0000000 
   0.067000000     1.0000000    0.0000000    -0.4345711   -0.4909296     1.0000000    0.0000000     1.0000000    0.0000000 
   0.068000000     1.0000000    0.0000000    -0.4926425   -0.4286234     1.0000000    0.0000000     1.0000000    0.0000000 
   0.069000000     1.0000000    0.0000000    -0.5417008   -0.3596584     1.0000000    0.0000000     1.0000000    0.0000000 
   0.070000000     1.0000000    0.0000000    -0.5810604   -0.2854497     1.0000000    0.0000000     1.0000000    0.0000000 
   0.071000000     1.0000000    0.0000000    -0.6100253   -0.2072796     1.0000000    0.0000000     1.0000000    0.0000000 
   0.072000000     1.0000000    0.0000000    -0.6285324   -0.1268458     1.0000000    0.0000000     1.0000000    0.0000000 
   0.073000000     1.0000000    0.0000000    -0.6365477   -0.0452270     1.0000000    0.0000000     1.0000000    0.0000000 
   0.074000000     1.0000000    0.0000000    -0.6341949    0.0364696     1.0000000    0.0000000     1.0000000    0.0000000 
   0.075000000     1.0000000    0.0000000    -0.6214921    0.1162550     1.0000000    0.0000000     1.0000000    0.0000000 
   0.076000000     1.0000000    0.0000000    -0.5988097    0.1933190     1.0000000    0.0000000     1.0000000    0.0000000 
   0.077000000     1.0000000    0.0000000    -0.5671753    0.2663436     1.0000000    0.0000000     1.0000000    0.0000000 
   0.078000000     1.0000000    0.0000000    -0.5266662    0.3346435     1.0000000    0.0000000     1.0000000    0.0000000 
   0.079000000     1.0000000    0.0000000    -0.4781532    0.3970115     1.0000000    0.0000000     1.0000000    0.0000000 
   0.080000000     1.0000000    0.0000000    -0.4224883    0.4527102     1.0000000    0.0000000     1.0000000    0.0000000 
   0.081000000     1.0000000    0.0000000    -0.3607040    0.5001735     1.0000000    0.0000000     1.0000000    0.0000000 
   0.082000000     1.0000000    0.0000000    -0.2936759    0.5398731     1.0000000    0.0000000     1.0000000    0.0000000 
   0.083000000     1.0000000    0.0000000    -0.2222953    0.5708913     1.0000000    0.0000000     1.0000000    0.0000000 
   0.084000000     1.0000000    0.0000000    -0.1479403    0.5924383     1.0000000    0.0000000     1.0000000    0.0000000 
   0.085000000     1.0000000    0.0000000    -0.0722825    0.6042376     1.0000000    0.0000000     1.0000000    0.0000000 
   0.086000000     1.0000000    0.0000000     0.0046120    0.6065974     1.0000000    0.0000000     1.0000000    0.0000000 
   0.087000000     1.0000000    0.0000000     0.0808594    0.5991426     1.0000000    0.0000000     1.0000000    0.0000000 
   0.088000000     1.0000000    0.0000000     0.1549048    0.5824115     1.0000000    0.0000000     1.0000000    0.0000000 
   0.089000000     1.0000000    0.0000000     0.2262937    0.5565161     1.0000000    0.0000000     1.0000000    0.0000000 
   0.090000000     1.0000000    0.0000000     0.2937921    0.5218468     1.0000000    0.0000000     1.0000000    0.0000000 
   0.091000000     1.0000000    0.0000000     0.3557830    0.4794208     1.0000000    0.0000000     1.0000000    0.0000000 
   0.092000000     1.0000000    0.0000000     0.4119540    0.4294166     1.0000000    0.0000000     1.0000000    0.0000000 
   0.093000000     1.0000000    0.0000000     0.4611081    0.3730421     1.0000000    0.0000000     1.0000000    0.0000000 
   0.094000000     1.0000000    0.0000000     0.5028969    0.3112614     1.0000000    0.0000000     1.0000000    0.0000000 
   0.095000000     1.0000000    0.0000000     0.5363275    0.2450221     1.0000000    0.0000000     1.0000000    0.0000000 
   0.096000000     1.0000000    0.0000000     0.5610322    0.1754755     1.0000000    0.0000000     1.0000000    0.0000000 
   0.097000000     1.0000000    0.0000000     0.5769901    0.1034645     1.0000000    0.0000000     1.0000000    0.0000000 
   0.098000000     1.0000000    0.0000000     0.5838271    0.0305970     1.0000000    0.0000000     1.0000000    0.0000000 
   0.099000000     1.0000000    0.0000000     0.5815442   -0.0426093     1.0000000    0.0000000     1.0000000    0.0000000 
   0.100000000     1.0000000    0.0000000     0.5703431   -0.1148334     1.0000000    0.0000000     1.0000000    0.0000000 
   0.101000000     1.0000000    0.0000000     0.5502227   -0.1843636     1.0000000    0.0000000     1.0000000    0.0000000 
   0.102000000     1.0000000    0.0000000     0.5218028   -0.2516311     1.0000000    0.0000000     1.0000000    0.0000000 
   0.103000000     1.0000000    0.0000000     0.4854034   -0.3140332     1.0000000    0.0000000     1.0000000    0.0000000 
   0.104000000     1.0000000    0.0000000     0.4418862   -0.3714864     1.0000000    0.0000000     1.0000000    0.0000000 
   0.105000000     1.0000000    0.0000000     0.3908437   -0.4236020     1.0000000    0.0000000     1.0000000    0.0000000 
   0.106000000     1.0000000    0.0000000     0.3343439   -0.4684209     1.0000000    0.0000000     1.0000000    0.0000000 
   0.107000000     1.0000000    0.0000000     0.2725498   -0.5059484     1.0000000    0.0000000     1.0000000    0.0000000 
   0.108000000     1.0000000    0.0000000     0.2062232   -0.5353819     1.0000000    0.0000000     1.0000000    0.0000000 
   0.109000000     1.0000000    0.0000000     0.1369785   -0.5561945     1.0000000    0.0000000     1.0000000    0.0000000 
   0.110000000     1.0000000    0.0000000     0.0656429   -0.5683923     1.0000000    0.0000000     1.0000000    0.0000000 
   0.111000000     1.0000000    0.0000000    -0.0065522   -0.5711113     1.0000000    0.0000000     1.0000000    0.0000000 
   0.112000000     1.0000000    0.0000000    -0.0784529   -0.5644474     1.0000000    0.0000000     1.0000000    0.0000000 
   0.113000000     1.0000000    0.0000000    -0.1489569   -0.5486804     1.0000000    0.0000000     1.0000000    0.0000000 
   0.114000000     1.0000000    0.0000000    -0.2162572   -0.5242927     1.0000000    0.0000000     1.0000000    0.0000000 
   0.115000000     1.0000000    0.0000000    -0.2801744   -0.4913332     1.0000000    0.0000000     1.0000000    0.0000000 
   0.116000000     1.0000000    0.0000000    -0.3388329   -0.4507764     1.0000000    0.0000000     1.0000000    0.0000000 
   0.117000000     1.0000000    0.0000000    -0.3915022   -0.4035653     1.0000000    0.0000000     1.0000000    0.0000000 
   0.118000000     1.0000000    0.0000000    -0.4375926   -0.3501331     1.0000000    0.0000000     1.0000000    0.0000000 
   0.119000000     1.0000000    0.0000000    -0.4765058   -0.2917369     1.0000000    0.0000000     1.0000000    0.0000000 
   0.120000000     1.0000000    0.0000000    -0.5075306   -0.2290568     1.0000000    0.0000000     1.0000000    0.0000000 
   0.121000000     1.0000000    0.0000000    -0.5307220   -0.1634204     1.0000000    0.0000000     1.0000000    0.0000000 
   0.122000000     1.0000000    0.0000000    -0.5450367   -0.0959599     1.0000000    0.0000000     1.0000000    0.0000000 
   0.123000000     1.0000000    0.0000000    -0.5510412   -0.0274142     1.0000000    0.0000000     1.0000000    0.0000000 
   0.124000000     1.0000000    0.0000000    -0.5486497    0.0411819     1.0000000    0.0000000     1.0000000    0.0000000 
   0.125000000     1.0000000    0.0000000    -0.5377137    0.1084439     1.0000000    0.0000000     1.0000000    0.0000000 
   0.126000000     1.0000000    0.0000000    -0.5189001    0.1737139     1.0000000    0.0000000     1.0000000    0.0000000 
   0.127000000     1.0000000    0.0000000    -0.4922757    0.2360272     1.0000000    0.0000000     1.0000000    0.0000000 
   0.128000000     1.0000000    0.0000000    -0.4583751    0.2943960     1.0000000    0.0000000     1.0000000    0.0000000 
   0.129000000     1.0000000    0.0000000    -0.4175959    0.3480407     1.0000000    0.0000000     1.0000000    0.0000000 
   0.130000000     1.0000000    0.0000000    -0.3707587    0.3962624     1.0000000    0.0000000     1.0000000    0.0000000 
   0.131000000     1.0000000    0.0000000    -0.3185823    0.4383180     1.0000000    0.0000000     1.0000000    0.0000000 
   0.132000000     1.0000000    0.0000000    -0.2618642    0.4735880     1.0000000    0.0000000     1.0000000    0.0000000 
   0.133000000     1.0000000    0.0000000    -0.2010647    0.5015788     1.0000000    0.0000000     1.0000000    0.0000000 
   0.134000000     1.0000000    0.0000000    -0.1376250    0.5221229     1.0000000    0.0000000     1.0000000    0.0000000 
   0.135000000     1.0000000    0.0000000    -0.0719844    0.5347597     1.0000000    0.0000000     1.0000000    0.0000000 
   0.136000000     1.0000000    0.0000000    -0.0054758    0.5392297     1.0000000    0.0000000     1.0000000    0.0000000 
   0.137000000     1.0000000    0.0000000     0.0611407    0.5357137     1.0000000    0.0000000     1.0000000    0.0000000 
   0.138000000     1.0000000    0.0000000     0.1268691    0.5240566     1.0000000    0.0000000     1.0000000    0.0000000 
   0.139000000     1.0000000    0.0000000     0.1907311    0.5043581     1.0000000    0.0000000     1.0000000    0.0000000 
   0.140000000     1.0000000    0.0000000     0.2519923    0.4768688     1.0000000    0.0000000     1.0000000    0.0000000 
   0.141000000     1.0000000    0.0000000     0.3093690    0.4420773     1.0000000    0.0000000     1.0000000    0.0000000 
   0.142000000     1.0000000    0.0000000     0.3620512    0.4005721     1.0000000    0.0000000     1.0000000    0.0000000 
   0.143000000     1.0000000    0.0000000     0.4094073    0.3523571     1.0000000    0.0000000     1.0000000    0.0000000 
   0.144000000     1.0000000    0.0000000     0.4504137    0.2988034     1.0000000    0.0000000     1.0000000    0.0000000 
   0.145000000     1.0000000    0.0000000     0.4845957    0.2405896     1.0000000    0.0000000     1.0000000    0.0000000 
   0.146000000     1.0000000    0.0000000     0.5113883    0.1780537     1.0000000    0.0000000     1.0000000    0.0000000 
   0.147000000     1.0000000    0.0000000     0.5299837    0.1126534     1.0000000    0.0000000     1.0000000    0.0000000 
   0.148000000     1.0000000    0.0000000     0.5402324    0.0451911     1.0000000    0.0000000     1.0000000    0.0000000 
   0.149000000     1.0000000    0.0000000     0.5418122   -0.0230103     1.0000000    0.0000000     1.0000000    0.0000000 
   0.150000000     1.0000000    0.0000000     0.5348691   -0.0911297     1.0000000    0.0000000     1.0000000    0.0000000 
   0.151000000     1.0000000    0.0000000     0.5192726   -0.1578568     1.0000000    0.0000000     1.0000000    0.0000000 
   0.152000000     1.0000000    0.0000000     0.4951541   -0.2221216     1.0000000    0.0000000     1.0000000    0.0000000 
   0.153000000     1.0000000    0.0000000     0.4632110   -0.2827849     1.0000000    0.0000000     1.0000000    0.0000000 
   0.154000000     1.0000000    0.0000000     0.4234447   -0.3390657     1.0000000    0.0000000     1.0000000    0.0000000 
   0.155000000     1.0000000    0.0000000     0.3770386   -0.3895345     1.0000000    0.0000000     1.0000000    0.0000000 
   0.156000000     1.0000000    0.0000000     0.3246326   -0.4338932     1.0000000    0.0000000     1.0000000    0.0000000 
   0.157000000     1.0000000    0.0000000     0.2669020   -0.4708346     1.0000000    0.0000000     1.0000000    0.0000000 
   0.158000000     1.0000000    0.0000000     0.2051017   -0.5002030     1.0000000    0.0000000     1.0000000    0.0000000 
   0.159000000     1.0000000    0.0000000     0.1402970   -0.5213529     1.0000000    0.0000000     1.0000000    0.0000000 
   0.160000000     1.0000000    0.0000000     0.0737199   -0.5339997     1.0000000    0.0000000     1.0000000    0.0000000 
   0.161000000     1.0000000    0.0000000     0.0060410   -0.5379678     1.0000000    0.0000000     1.0000000    0.0000000 
